2023-03-28 17:56:52.622017 > 01 03 02 0d ad 7d 69
2023-03-28 17:56:52.827765 < 00 30 15 97 8e 07 fe 19 86 86 83 1c 87 1e 87 8e 86 7e 9a 0e 35 87 8a f2 1c 8f 93 0e cb 16 16 9d 87 02 30 06 97 83 8f 24 9b e5 96 8a fa 8f 96 96 8e 06 96 fe 96 83 96 1f 0c 87 0b 8f 96 8f 86 5a 16 06 86 97 8a 1e 86 96 0a e1 00 03 00 2b 00 01 f5 d3
2023-03-28 17:57:27.110182 > 01 03 1e 00 00 00 00 00 00 00 00 00 00 00 00 00 00 00 00 00 00 00 00 00 00 00 00 00 00 00 00 00 00 d8 ba
2023-03-28 17:57:27.311576 < 01 03 00 d1 00 0f 55 f7
2023-03-28 17:57:28.652958 > 01 03 28 00 00 00 00 00 00 00 00 00 00 00 00 00 00 00 01 00 00 00 00 00 00 00 00 00 00 00 00 00 00 00 00 00 00 00 00 00 00 00 00 33 63 01 03 fa 00 01 08 00 00 00 00 64 00 64 27 10 00 00 17 70 0e 10 52 41 31 2e 30 20 5a 43 42 41 00 06 00 01 00 00 05 dc 00 1e 00 41 00 c8 00 64 00 00 4e 57 43 54 43 48 31 30 30 36 01 00 f2 75 00 01 00 5a 00 00 00 00 20 20 20 4e 65 77 20 45 6e 65 72 67 79 20 20 20 00 01 0d ad 00 00 07 e7 00 03 00 1c 00 11 00 38 00 29 00 02 07 30 0a 3e 12 8e 14 50 07 30 0a b1 12 5c 14 50 00 00 00 00 00 00 00 00 07 d1 0a 3e 12 8e 14 50 00 7f 00 34 00 7f 00 1b 03 ea 00 19 00 1b 00 1b 00 00 00 00 00 00 00 00 09 c4 00 00 52 41 41 41 32 31 32 30 30 36 00 00 01 31 00 00 00 00 13 b0 00 18 09 e2 09 b4 08 16 08 44 00 14 00 05 09 6f 08 fc 00 00 00 00 00 00 00 00 00 00 00 00 00 96 00 00 01 e4 00 ff 4e 20 00 ff 4e 20 00 ff 4e 20 00 ff 4e 20 00 00 00 00 00 00 00 00 00 00 00 00 00 00 88 37
2023-03-28 17:57:28.855840 < 01 03 00 b4 00 14 05 e3 01 03 00 00 00 7d 85 eb
2023-03-28 17:57:30.171018 > 01 03 fa 17 70 00 00 12 c0 00 32 01 d6 02 3f 12 c0 16 a8 42 a0 04 4c 02 bc 04 4c 02 58 00 00 00 00 00 00 00 00 00 00 00 00 00 00 00 00 00 00 00 00 00 00 00 00 00 00 00 00 00 00 00 00 00 00 00 00 00 00 00 00 00 00 00 00 00 00 00 00 00 00 00 00 00 05 00 00 00 64 00 00 00 01 00 00 00 64 00 64 00 00 00 01 00 01 00 01 00 00 00 00 00 00 00 00 00 00 00 00 00 00 00 00 00 00 00 01 00 00 00 00 00 00 00 00 00 00 00 00 00 00 00 00 00 00 00 64 00 05 00 00 00 00 00 00 00 00 00 00 00 00 00 00 00 00 00 00 00 00 00 01 00 00 00 00 00 00 00 00 00 00 00 00 00 00 00 14 00 64 00 01 00 00 00 00 00 00 00 00 00 00 00 00 00 00 00 1e 04 1e 00 01 00 00 00 00 00 00 00 00 00 00 00 00 00 0a 00 00 00 00 00 00 00 00 00 00 00 00 00 00 00 00 00 00 00 01 00 00 00 00 00 00 00 00 00 00 50 29
2023-03-28 17:57:30.372276 < 01 03 03 e8 00 7d 05 9b
2023-03-28 17:57:31.671740 > 01 03 fa 47 50 4a 30 32 31 39 35 32 32 32 35 37 38 32 41 00 00 00 00 00 00 00 00 00 00 00 00 00 00 00 00 00 00 00 00 00 00 00 00 00 00 00 00 00 00 00 00 00 00 00 00 00 00 00 00 00 00 00 00 00 00 00 00 00 00 00 00 00 00 00 00 00 00 00 00 00 00 00 00 00 00 00 00 00 00 00 00 00 00 00 00 00 00 00 00 00 00 00 00 00 00 00 00 00 00 00 00 00 00 00 00 00 00 00 00 00 00 00 00 00 00 00 00 00 00 00 00 00 00 00 00 00 00 00 00 00 00 00 00 00 00 00 00 00 00 00 00 00 00 00 00 00 00 00 00 00 00 00 00 00 00 00 00 00 00 00 00 00 00 00 00 00 00 00 00 00 00 00 00 00 00 00 00 00 00 00 00 00 00 00 00 00 00 00 00 00 00 00 00 00 00 00 00 00 00 00 00 00 00 00 00 00 00 00 00 00 00 00 00 00 00 00 00 00 00 00 00 00 00 00 00 00 00 00 00 00 00 00 00 00 00 00 00 00 00 00 00 00 00 5b 19
2023-03-28 17:57:31.873725 < 01 03 04 65 00 7d 94 c4
2023-03-28 17:57:33.174865 > 01 04 fa 00 05 00 00 05 dc 0d 3d 00 02 00 00 03 3b 05 08 00 05 00 00 02 b1 00 01 42 a0 09 b0 07 c4 08 9a 00 fa 00 00 00 00 00 00 00 00 00 00 00 00 00 00 00 00 00 00 00 00 00 00 00 00 00 00 00 00 00 00 00 00 00 00 00 00 00 00 0b 10 13 8b 09 0a 00 11 00 00 0b 2a 00 00 00 00 00 00 00 00 00 00 00 00 00 00 00 00 00 00 00 00 00 00 00 00 00 45 00 00 16 08 00 7b cb d0 00 00 00 1f 00 00 0c 24 00 00 00 14 00 00 06 3d 00 00 00 00 00 00 00 00 00 00 00 00 00 00 00 00 00 00 00 00 00 00 00 00 00 00 00 00 00 00 00 00 00 00 00 00 00 00 00 00 00 00 00 00 00 00 00 00 00 00 12 6d 00 f3 00 d9 00 e1 00 00 02 0d 10 b8 10 dd 00 00 00 00 00 00 00 00 00 00 00 00 00 00 00 00 00 00 00 00 00 00 00 00 00 00 00 19 00 00 06 5c 00 00 00 00 00 00 00 01 00 00 00 00 00 00 00 00 00 00 b6 1f
2023-03-28 17:57:33.376040 < 01 04 00 00 00 7d 30 2b
2023-03-28 17:57:34.676221 > 01 04 fa 00 05 00 00 00 00 00 00 00 00 00 00 00 00 00 00 00 00 00 00 04 b0 00 00 00 00 02 0c 00 3e 00 00 00 00 00 00 00 00 00 00 00 00 00 00 00 00 00 00 00 66 00 00 00 00 00 00 00 00 00 00 00 66 00 00 0a 28 00 00 00 00 00 00 00 00 00 00 0a 28 00 00 00 0e 00 05 0b 8f 28 b4 00 00 00 3a 00 00 0d 24 00 00 00 03 00 00 05 ff 00 00 00 2a 00 00 0a f5 00 00 00 2d 00 00 0b 59 00 00 00 67 00 00 19 2e 00 00 00 00 00 00 00 00 00 00 00 00 00 00 00 00 00 00 00 00 00 00 00 00 00 00 00 00 00 00 00 00 00 00 03 e8 00 00 00 61 00 00 00 00 00 3e 14 78 ff 56 00 0e 19 00 1e dc 31 10 86 86 00 04 00 2c 00 64 16 30 00 00 00 00 00 00 86 86 00 00 00 00 00 00 41 50 41 50 00 00 0c cd 0c c9 00 01 0e 10 0c cb 0c ca 0c cd 0c ca 0c cc 0c cb 0c ca 0c cc 0c ca 0c cc 0c ca 0c ca 00 00 03 cf
2023-03-28 17:57:34.878544 < 01 04 03 e8 00 7d b0 5b
2023-03-28 17:57:36.178035 > 01 04 fa 00 19 00 00 06 5c 00 00 00 00 04 50 00 00 00 00 00 00 00 00 00 00 00 00 00 00 00 47 00 00 17 19 00 00 00 45 00 00 11 39 00 00 0a 28 00 00 0a 28 00 00 00 33 00 01 00 00 0a 1b 00 01 00 00 0b 38 00 00 00 00 00 00 00 00 00 00 00 00 00 00 00 00 00 00 00 00 00 00 00 00 00 00 00 00 00 00 00 00 00 00 00 00 00 00 00 00 00 00 00 00 00 00 00 00 00 00 00 00 00 00 00 00 00 00 00 00 00 00 00 00 00 00 00 00 00 00 00 00 00 00 00 00 00 00 00 00 00 00 00 00 00 01 0c cd 0c c8 00 01 00 10 00 07 00 02 00 9e 00 82 00 03 00 01 00 00 00 3e 00 3e 00 00 00 00 00 00 00 00 00 23 00 c0 00 00 00 00 00 00 00 00 00 00 00 00 00 00 00 00 00 00 00 00 00 00 00 00 00 00 00 00 00 00 00 00 00 00 00 00 00 00 00 00 00 00 00 00 00 00 00 00 00 00 00 00 00 00 00 00 00 00 00 00 00 00 71 4b
2023-03-28 17:57:36.379147 < 01 04 04 65 00 7d 21 04
2023-03-28 17:57:38.990599 > 01 03 28 00 00 00 00 00 00 00 00 00 00 00 00 00 00 00 01 00 00 00 00 00 00 00 00 00 00 00 00 00 00 00 00 00 00 00 00 00 00 00 00 33 63 01 03 fa 00 01 08 00 00 00 00 64 00 64 27 10 00 00 17 70 0e 10 52 41 31 2e 30 20 5a 43 42 41 00 06 00 01 00 00 05 dc 00 1e 00 41 00 c8 00 64 00 00 4e 57 43 54 43 48 31 30 30 36 01 00 f2 75 00 01 00 5a 00 00 00 00 20 20 20 4e 65 77 20 45 6e 65 72 67 79 20 20 20 00 01 0d ad 00 00 07 e7 00 03 00 1c 00 11 00 38 00 33 00 02 07 30 0a 3e 12 8e 14 50 07 30 0a b1 12 5c 14 50 00 00 00 00 00 00 00 00 07 d1 0a 3e 12 8e 14 50 00 7f 00 34 00 7f 00 1b 03 ea 00 19 00 1b 00 1b 00 00 00 00 00 00 00 00 09 c4 00 00 52 41 41 41 32 31 32 30 30 36 00 00 01 31 00 00 00 00 13 b0 00 18 09 e2 09 b4 08 16 08 44 00 14 00 05 09 6f 08 fc 00 00 00 00 00 00 00 00 00 00 00 00 00 96 00 00 01 e4 00 ff 4e 20 00 ff 4e 20 00 ff 4e 20 00 ff 4e 20 00 00 00 00 00 00 00 00 00 00 00 00 00 00 00 87
2023-03-28 17:57:39.192309 < 01 03 00 b4 00 14 05 e3 01 03 00 00 00 7d 85 eb
2023-03-28 17:57:40.493268 > 01 03 fa 17 70 00 00 12 c0 00 32 01 d6 02 3f 12 c0 16 a8 42 a0 04 4c 02 bc 04 4c 02 58 00 00 00 00 00 00 00 00 00 00 00 00 00 00 00 00 00 00 00 00 00 00 00 00 00 00 00 00 00 00 00 00 00 00 00 00 00 00 00 00 00 00 00 00 00 00 00 00 00 00 00 00 00 05 00 00 00 64 00 00 00 01 00 00 00 64 00 64 00 00 00 01 00 01 00 01 00 00 00 00 00 00 00 00 00 00 00 00 00 00 00 00 00 00 00 01 00 00 00 00 00 00 00 00 00 00 00 00 00 00 00 00 00 00 00 64 00 05 00 00 00 00 00 00 00 00 00 00 00 00 00 00 00 00 00 00 00 00 00 01 00 00 00 00 00 00 00 00 00 00 00 00 00 00 00 14 00 64 00 01 00 00 00 00 00 00 00 00 00 00 00 00 00 00 00 1e 04 1e 00 01 00 00 00 00 00 00 00 00 00 00 00 00 00 0a 00 00 00 00 00 00 00 00 00 00 00 00 00 00 00 00 00 00 00 01 00 00 00 00 00 00 00 00 00 00 50 29
2023-03-28 17:57:40.694725 < 01 03 03 e8 00 7d 05 9b
2023-03-28 17:57:41.995497 > 01 03 fa 47 50 4a 30 32 31 39 35 32 32 32 35 37 38 32 41 00 00 00 00 00 00 00 00 00 00 00 00 00 00 00 00 00 00 00 00 00 00 00 00 00 00 00 00 00 00 00 00 00 00 00 00 00 00 00 00 00 00 00 00 00 00 00 00 00 00 00 00 00 00 00 00 00 00 00 00 00 00 00 00 00 00 00 00 00 00 00 00 00 00 00 00 00 00 00 00 00 00 00 00 00 00 00 00 00 00 00 00 00 00 00 00 00 00 00 00 00 00 00 00 00 00 00 00 00 00 00 00 00 00 00 00 00 00 00 00 00 00 00 00 00 00 00 00 00 00 00 00 00 00 00 00 00 00 00 00 00 00 00 00 00 00 00 00 00 00 00 00 00 00 00 00 00 00 00 00 00 00 00 00 00 00 00 00 00 00 00 00 00 00 00 00 00 00 00 00 00 00 00 00 00 00 00 00 00 00 00 00 00 00 00 00 00 00 00 00 00 00 00 00 00 00 00 00 00 00 00 00 00 00 00 00 00 00 00 00 00 00 00 00 00 00 00 00 00 00 00 00 00 00 5b 19
2023-03-28 17:57:42.197038 < 01 03 04 65 00 7d 94 c4
2023-03-28 17:57:43.497625 > 01 04 fa 00 05 00 00 05 78 0d 26 00 02 00 00 03 21 04 f4 00 05 00 00 02 a9 00 01 42 a0 09 ab 07 c5 08 9b 00 fa 00 00 00 00 00 00 00 00 00 00 00 00 00 00 00 00 00 00 00 00 00 00 00 00 00 00 00 00 00 00 00 00 00 00 00 00 00 00 0a 67 13 8b 09 0c 00 11 00 00 0a fe 00 00 00 00 00 00 00 00 00 00 00 00 00 00 00 00 00 00 00 00 00 00 00 00 00 45 00 00 16 08 00 7b cb e4 00 00 00 1f 00 00 0c 24 00 00 00 14 00 00 06 3d 00 00 00 00 00 00 00 00 00 00 00 00 00 00 00 00 00 00 00 00 00 00 00 00 00 00 00 00 00 00 00 00 00 00 00 00 00 00 00 00 00 00 00 00 00 00 00 00 00 00 12 6d 00 f3 00 d9 00 e1 00 00 02 0d 10 b8 10 de 00 00 00 00 00 00 00 00 00 00 00 00 00 00 00 00 00 00 00 00 00 00 00 00 00 00 00 19 00 00 06 5c 00 00 00 00 00 00 00 01 00 00 00 00 00 00 00 00 00 00 4b e8
2023-03-28 17:57:43.698953 < 01 04 00 00 00 7d 30 2b
2023-03-28 17:57:45.031619 > 01 04 fa 00 05 00 00 00 00 00 00 00 00 00 00 00 00 00 00 00 00 00 00 04 b0 00 00 00 00 02 0c 00 3e 00 00 00 00 00 00 00 00 00 00 00 00 00 00 00 00 00 00 00 40 00 00 00 00 00 00 00 00 00 00 00 40 00 00 0a 28 00 00 00 00 00 00 00 00 00 00 0a 28 00 00 00 0e 00 05 0b 8f 28 b4 00 00 00 3a 00 00 0d 24 00 00 00 03 00 00 05 ff 00 00 00 2a 00 00 0a f5 00 00 00 2d 00 00 0b 59 00 00 00 67 00 00 19 2e 00 00 00 00 00 00 00 00 00 00 00 00 00 00 00 00 00 00 00 00 00 00 00 00 00 00 00 00 00 00 00 00 00 00 03 e8 00 00 00 61 00 00 00 00 00 3e 14 78 ff 56 00 0e 19 00 1e dc 31 10 86 86 00 05 00 2c 00 64 16 30 00 00 00 00 00 00 86 86 00 00 00 00 00 00 41 50 41 50 00 00 0c cc 0c c9 00 01 0e 10 0c cb 0c ca 0c cd 0c ca 0c cc 0c cb 0c ca 0c cd 0c ca 0c cc 0c ca 0c ca 00 00 95 92
2023-03-28 17:57:45.233133 < 01 04 03 e8 00 7d b0 5b
2023-03-28 17:57:46.533271 > 01 04 fa 00 19 00 00 06 5c 00 00 00 00 04 50 00 00 00 00 00 00 00 00 00 00 00 00 00 00 00 47 00 00 17 19 00 00 00 45 00 00 11 39 00 00 0a 28 00 00 0a 28 00 00 00 33 00 01 00 00 0a 1b 00 01 00 00 0b 38 00 00 00 00 00 00 00 00 00 00 00 00 00 00 00 00 00 00 00 00 00 00 00 00 00 00 00 00 00 00 00 00 00 00 00 00 00 00 00 00 00 00 00 00 00 00 00 00 00 00 00 00 00 00 00 00 00 00 00 00 00 00 00 00 00 00 00 00 00 00 00 00 00 00 00 00 00 00 00 00 00 00 00 00 00 01 0c cd 0c c9 00 01 00 10 00 07 00 02 00 9e 00 82 00 03 00 01 00 00 00 3e 00 3e 00 00 00 00 00 00 00 00 00 23 00 c0 00 00 00 00 00 00 00 00 00 00 00 00 00 00 00 00 00 00 00 00 00 00 00 00 00 00 00 00 00 00 00 00 00 00 00 00 00 00 00 00 00 00 00 00 00 00 00 00 00 00 00 00 00 00 00 00 00 00 00 00 00 00 6b a6
2023-03-28 17:57:46.734776 < 01 04 04 65 00 7d 21 04
2023-03-28 17:57:49.315234 > 01 03 28 00 00 00 00 00 00 00 00 00 00 00 00 00 00 00 01 00 00 00 00 00 00 00 00 00 00 00 00 00 00 00 00 00 00 00 00 00 00 00 00 33 63 01 03 fa 00 01 08 00 00 00 00 64 00 64 27 10 00 00 17 70 0e 10 52 41 31 2e 30 20 5a 43 42 41 00 06 00 01 00 00 05 dc 00 1e 00 41 00 c8 00 64 00 00 4e 57 43 54 43 48 31 30 30 36 01 00 f2 75 00 01 00 5a 00 00 00 00 20 20 20 4e 65 77 20 45 6e 65 72 67 79 20 20 20 00 01 0d ad 00 00 07 e7 00 03 00 1c 00 11 00 39 00 01 00 02 07 30 0a 3e 12 8e 14 50 07 30 0a b1 12 5c 14 50 00 00 00 00 00 00 00 00 07 d1 0a 3e 12 8e 14 50 00 7f 00 34 00 7f 00 1b 03 ea 00 19 00 1b 00 1b 00 00 00 00 00 00 00 00 09 c4 00 00 52 41 41 41 32 31 32 30 30 36 00 00 01 31 00 00 00 00 13 b0 00 18 09 e2 09 b4 08 16 08 44 00 14 00 05 09 6f 08 fc 00 00 00 00 00 00 00 00 00 00 00 00 00 96 00 00 01 e4 00 ff 4e 20 00 ff 4e 20 00 ff 4e 20 00 ff 4e 20 00 00 00 00 00 00 00 00 00 00 00 00 00 00 46 ae
2023-03-28 17:57:49.517714 < 01 03 00 b4 00 14 05 e3 01 03 00 00 00 7d 85 eb
2023-03-28 17:57:50.832464 > 01 03 fa 17 70 00 00 12 c0 00 32 01 d6 02 3f 12 c0 16 a8 42 a0 04 4c 02 bc 04 4c 02 58 00 00 00 00 00 00 00 00 00 00 00 00 00 00 00 00 00 00 00 00 00 00 00 00 00 00 00 00 00 00 00 00 00 00 00 00 00 00 00 00 00 00 00 00 00 00 00 00 00 00 00 00 00 05 00 00 00 64 00 00 00 01 00 00 00 64 00 64 00 00 00 01 00 01 00 01 00 00 00 00 00 00 00 00 00 00 00 00 00 00 00 00 00 00 00 01 00 00 00 00 00 00 00 00 00 00 00 00 00 00 00 00 00 00 00 64 00 05 00 00 00 00 00 00 00 00 00 00 00 00 00 00 00 00 00 00 00 00 00 01 00 00 00 00 00 00 00 00 00 00 00 00 00 00 00 14 00 64 00 01 00 00 00 00 00 00 00 00 00 00 00 00 00 00 00 1e 04 1e 00 01 00 00 00 00 00 00 00 00 00 00 00 00 00 0a 00 00 00 00 00 00 00 00 00 00 00 00 00 00 00 00 00 00 00 01 00 00 00 00 00 00 00 00 00 00 50 29
2023-03-28 17:57:51.033757 < 01 03 03 e8 00 7d 05 9b
2023-03-28 17:57:56.256250 > 01 03 fa 47 50 4a 30 32 31 39 35 32 32 32 35 37 38 32 41 00 00 00 00 00 00 00 00 00 00 00 00 00 00 00 00 00 00 00 00 00 00 00 00 00 00 00 00 00 00 00 00 00 00 00 00 00 00 00 00 00 00 00 00 00 00 00 00 00 00 00 00 00 00 00 00 00 00 00 00 00 00 00 00 00 00 00 00 00 00 00 00 00 00 00 00 00 00 00 00 00 00 00 00 00 00 00 00 00 00 00 00 00 00 00 00 00 00 00 00 00 00 00 00 00 00 00 00 00 00 00 00 00 00 00 00 00 00 00 00 00 00 00 00 00 00 00 00 00 00 00 00 00 00 00 00 00 00 00 00 00 00 00 00 00 00 00 00 00 00 00 00 00 00 00 00 00 00 00 00 00 00 00 00 00 00 00 00 00 00 00 00 00 00 00 00 00 00 00 00 00 00 00 00 00 00 00 00 00 00 00 00 00 00 00 00 00 00 00 00 00 00 00 00 00 00 00 00 00 00 00 00 00 00 00 00 00 00 00 00 00 00 00 00 00 00 00 00 00 00 00 00 00 00 5b 19
2023-03-28 17:57:56.457413 < 01 03 04 65 00 7d 94 c4
2023-03-28 17:57:57.669214 > 01 04 fa 00 05 00 00 05 78 0d 43 00 02 00 00 03 0a 05 1c 00 05 00 00 02 98 00 01 42 a0 09 ac 07 c5 08 9a 00 fa 00 00 00 00 00 00 00 00 00 00 00 00 00 00 00 00 00 00 00 00 00 00 00 00 00 00 00 00 00 00 00 00 00 00 00 00 00 00 0b 18 13 8a 09 0b 00 11 00 00 0a eb 00 00 00 00 00 00 00 00 00 00 00 00 00 00 00 00 00 00 00 00 00 00 00 00 00 45 00 00 16 08 00 7b cc 00 00 00 00 1f 00 00 0c 24 00 00 00 14 00 00 06 3d 00 00 00 00 00 00 00 00 00 00 00 00 00 00 00 00 00 00 00 00 00 00 00 00 00 00 00 00 00 00 00 00 00 00 00 00 00 00 00 00 00 00 00 00 00 00 00 00 00 00 12 6d 00 f3 00 d9 00 e0 00 00 02 0d 10 b9 10 de 00 00 00 00 00 00 00 00 00 00 00 00 00 00 00 00 00 00 00 00 00 00 00 00 00 00 00 19 00 00 06 5c 00 00 00 00 00 00 00 01 00 00 00 00 00 00 00 00 00 00 f4 89
2023-03-28 17:57:57.870521 < 01 04 00 00 00 7d 30 2b
2023-03-28 17:57:59.081946 > 01 04 fa 00 05 00 00 00 00 00 00 00 00 00 00 00 00 00 00 00 00 00 00 04 b0 00 00 00 00 02 0c 00 3e 00 00 00 0f 00 00 00 00 00 00 00 00 00 00 00 0f 00 00 00 00 00 00 00 00 00 00 00 00 00 00 00 00 00 00 0a 28 00 00 00 00 00 00 00 00 00 00 0a 28 00 00 00 0e 00 05 0b 8f 28 b4 00 00 00 3a 00 00 0d 24 00 00 00 03 00 00 05 ff 00 00 00 2a 00 00 0a f5 00 00 00 2d 00 00 0b 59 00 00 00 67 00 00 19 2e 00 00 00 00 00 00 00 00 00 00 00 00 00 00 00 00 00 00 00 00 00 00 00 00 00 00 00 00 00 00 00 00 00 00 03 e8 00 00 00 61 00 00 00 00 00 3e 14 78 ff 56 00 0e 19 00 1e dc 31 10 86 86 00 05 00 2c 00 64 16 30 00 00 00 00 00 00 86 86 00 00 00 00 00 00 41 50 41 50 00 00 0c cd 0c c8 00 01 0e 10 0c cb 0c cb 0c cc 0c ca 0c cc 0c ca 0c ca 0c cd 0c ca 0c cc 0c ca 0c ca 00 00 0e 5d
2023-03-28 17:57:59.283133 < 01 04 03 e8 00 7d b0 5b
2023-03-28 17:58:00.565329 > 01 04 fa 00 19 00 00 06 5c 00 00 00 00 04 50 00 00 00 00 00 00 00 00 00 00 00 00 00 00 00 47 00 00 17 19 00 00 00 45 00 00 11 39 00 00 0a 28 00 00 0a 28 00 00 00 33 00 01 00 00 0a 1b 00 01 00 00 0b 38 00 00 00 00 00 00 00 00 00 00 00 00 00 00 00 00 00 00 00 00 00 00 00 00 00 00 00 00 00 00 00 00 00 00 00 00 00 00 00 00 00 00 00 00 00 00 00 00 00 00 00 00 00 00 00 00 00 00 00 00 00 00 00 00 00 00 00 00 00 00 00 00 00 00 00 00 00 00 00 00 00 00 00 00 00 01 0c cc 0c c9 00 01 00 10 00 05 00 02 00 9e 00 82 00 03 00 01 00 00 00 3e 00 3e 00 00 00 00 00 00 00 00 00 23 00 c0 00 00 00 00 00 00 00 00 00 00 00 00 00 00 00 00 00 00 00 00 00 00 00 00 00 00 00 00 00 00 00 00 00 00 00 00 00 00 00 00 00 00 00 00 00 00 00 00 00 00 00 00 00 00 00 00 00 00 00 00 00 00 db 4a
2023-03-28 17:58:00.766967 < 01 04 04 65 00 7d 21 04
2023-03-28 17:58:03.360885 > 01 03 28 00 00 00 00 00 00 00 00 00 00 00 00 00 00 00 01 00 00 00 00 00 00 00 00 00 00 00 00 00 00 00 00 00 00 00 00 00 00 00 00 33 63 01 03 fa 00 01 08 00 00 00 00 64 00 64 27 10 00 00 17 70 0e 10 52 41 31 2e 30 20 5a 43 42 41 00 06 00 01 00 00 05 dc 00 1e 00 41 00 c8 00 64 00 00 4e 57 43 54 43 48 31 30 30 36 01 00 f2 75 00 01 00 5a 00 00 00 00 20 20 20 4e 65 77 20 45 6e 65 72 67 79 20 20 20 00 01 0d ad 00 00 07 e7 00 03 00 1c 00 11 00 39 00 0f 00 02 07 30 0a 3e 12 8e 14 50 07 30 0a b1 12 5c 14 50 00 00 00 00 00 00 00 00 07 d1 0a 3e 12 8e 14 50 00 7f 00 34 00 7f 00 1b 03 ea 00 19 00 1b 00 1b 00 00 00 00 00 00 00 00 09 c4 00 00 52 41 41 41 32 31 32 30 30 36 00 00 01 31 00 00 00 00 13 b0 00 18 09 e2 09 b4 08 16 08 44 00 14 00 05 09 6f 08 fc 00 00 00 00 00 00 00 00 00 00 00 00 00 96 00 00 01 e4 00 ff 4e 20 00 ff 4e 20 00 ff 4e 20 00 ff 4e 20 00 00 00 00 00 00 00 00 00 00 00 00 00 00 65 04
2023-03-28 17:58:03.562674 < 01 03 00 b4 00 14 05 e3 01 03 00 00 00 7d 85 eb
2023-03-28 17:58:04.864936 > 01 03 fa 17 70 00 00 12 c0 00 32 01 d6 02 3f 12 c0 16 a8 42 a0 04 4c 02 bc 04 4c 02 58 00 00 00 00 00 00 00 00 00 00 00 00 00 00 00 00 00 00 00 00 00 00 00 00 00 00 00 00 00 00 00 00 00 00 00 00 00 00 00 00 00 00 00 00 00 00 00 00 00 00 00 00 00 05 00 00 00 64 00 00 00 01 00 00 00 64 00 64 00 00 00 01 00 01 00 01 00 00 00 00 00 00 00 00 00 00 00 00 00 00 00 00 00 00 00 01 00 00 00 00 00 00 00 00 00 00 00 00 00 00 00 00 00 00 00 64 00 05 00 00 00 00 00 00 00 00 00 00 00 00 00 00 00 00 00 00 00 00 00 01 00 00 00 00 00 00 00 00 00 00 00 00 00 00 00 14 00 64 00 01 00 00 00 00 00 00 00 00 00 00 00 00 00 00 00 1e 04 1e 00 01 00 00 00 00 00 00 00 00 00 00 00 00 00 0a 00 00 00 00 00 00 00 00 00 00 00 00 00 00 00 00 00 00 00 01 00 00 00 00 00 00 00 00 00 00 50 29
2023-03-28 17:58:05.066259 < 01 03 03 e8 00 7d 05 9b
2023-03-28 17:58:06.365613 > 01 03 fa 47 50 4a 30 32 31 39 35 32 32 32 35 37 38 32 41 00 00 00 00 00 00 00 00 00 00 00 00 00 00 00 00 00 00 00 00 00 00 00 00 00 00 00 00 00 00 00 00 00 00 00 00 00 00 00 00 00 00 00 00 00 00 00 00 00 00 00 00 00 00 00 00 00 00 00 00 00 00 00 00 00 00 00 00 00 00 00 00 00 00 00 00 00 00 00 00 00 00 00 00 00 00 00 00 00 00 00 00 00 00 00 00 00 00 00 00 00 00 00 00 00 00 00 00 00 00 00 00 00 00 00 00 00 00 00 00 00 00 00 00 00 00 00 00 00 00 00 00 00 00 00 00 00 00 00 00 00 00 00 00 00 00 00 00 00 00 00 00 00 00 00 00 00 00 00 00 00 00 00 00 00 00 00 00 00 00 00 00 00 00 00 00 00 00 00 00 00 00 00 00 00 00 00 00 00 00 00 00 00 00 00 00 00 00 00 00 00 00 00 00 00 00 00 00 00 00 00 00 00 00 00 00 00 00 00 00 00 00 00 00 00 00 00 00 00 00 00 00 00 00 5b 19
2023-03-28 17:58:06.566370 < 01 03 04 65 00 7d 94 c4
2023-03-28 17:58:07.868528 > 01 04 fa 00 05 00 00 05 78 0d 25 00 02 00 00 02 fa 05 19 00 04 00 00 02 7f 00 01 42 a0 09 ab 07 c6 08 9b 00 fa 00 00 00 00 00 00 00 00 00 00 00 00 00 00 00 00 00 00 00 00 00 00 00 00 00 00 00 00 00 00 00 00 00 00 00 00 00 00 0a ba 13 87 09 18 00 11 00 00 0a be 00 00 00 00 00 00 00 00 00 00 00 00 00 00 00 00 00 00 00 00 00 00 00 00 00 45 00 00 16 08 00 7b cc 15 00 00 00 1f 00 00 0c 24 00 00 00 14 00 00 06 3d 00 00 00 00 00 00 00 00 00 00 00 00 00 00 00 00 00 00 00 00 00 00 00 00 00 00 00 00 00 00 00 00 00 00 00 00 00 00 00 00 00 00 00 00 00 00 00 00 00 00 12 6d 00 f2 00 d9 00 e0 00 00 02 0d 10 b7 10 dc 00 00 00 00 00 00 00 00 00 00 00 00 00 00 00 00 00 00 00 00 00 00 00 00 00 00 00 19 00 00 06 5c 00 00 00 00 00 00 00 01 00 00 00 00 00 00 00 00 00 00 3b 1c
2023-03-28 17:58:08.069824 < 01 04 00 00 00 7d 30 2b
2023-03-28 17:58:09.368272 > 01 04 fa 00 05 00 00 00 00 00 00 00 00 00 00 00 00 00 00 00 00 00 00 04 b0 00 00 00 00 02 0c 00 3e 00 00 00 00 00 00 00 00 00 00 00 00 00 00 00 00 00 00 00 3d 00 00 00 00 00 00 00 00 00 00 00 3d 00 00 09 c4 00 00 00 00 00 00 00 00 00 00 09 c4 00 00 00 0e 00 05 0b 8f 28 b4 00 00 00 3a 00 00 0d 24 00 00 00 03 00 00 05 ff 00 00 00 2a 00 00 0a f5 00 00 00 2d 00 00 0b 59 00 00 00 67 00 00 19 2e 00 00 00 00 00 00 00 00 00 00 00 00 00 00 00 00 00 00 00 00 00 00 00 00 00 00 00 00 00 00 00 00 00 00 03 e8 00 00 00 61 00 00 00 00 00 3e 14 78 ff 56 00 0e 19 00 1e dc 31 10 86 86 00 05 00 2c 00 64 16 30 00 00 00 00 00 00 86 86 00 00 00 00 00 00 41 50 41 50 00 00 0c cd 0c c9 00 01 0e 10 0c cb 0c ca 0c cd 0c ca 0c cc 0c ca 0c c9 0c cd 0c ca 0c cc 0c ca 0c c9 00 00 7e 31
2023-03-28 17:58:09.569481 < 01 04 03 e8 00 7d b0 5b
2023-03-28 17:58:10.870305 > 01 04 fa 00 19 00 00 06 5c 00 00 00 00 04 50 00 00 00 00 00 00 00 00 00 00 00 00 00 00 00 47 00 00 17 19 00 00 00 45 00 00 11 39 00 00 09 c4 00 00 09 c4 00 00 00 33 00 01 00 00 0a 1b 00 01 00 00 0b 38 00 00 00 00 00 00 00 00 00 00 00 00 00 00 00 00 00 00 00 00 00 00 00 00 00 00 00 00 00 00 00 00 00 00 00 00 00 00 00 00 00 00 00 00 00 00 00 00 00 00 00 00 00 00 00 00 00 00 00 00 00 00 00 00 00 00 00 00 00 00 00 00 00 00 00 00 00 00 00 00 00 00 00 00 00 01 0c cd 0c c9 00 01 00 10 00 07 00 02 00 9e 00 82 00 03 00 01 00 00 00 3e 00 3e 00 00 00 00 00 00 00 00 00 23 00 c0 00 00 00 00 00 00 00 00 00 00 00 00 00 00 00 00 00 00 00 00 00 00 00 00 00 00 00 00 00 00 00 00 00 00 00 00 00 00 00 00 00 00 00 00 00 00 00 00 00 00 00 00 00 00 00 00 00 00 00 00 00 00 1d dc
2023-03-28 17:58:11.071605 < 01 04 04 65 00 7d 21 04
2023-03-28 17:58:13.363518 > 01 03 fa 0d ad 4e 57 43 54 43 48 31 30 30 36 00 00 00 00 00 00 00 00 00 00 00 00 00 00 00 00 00 00 00 00 00 00 ea 60 00 00 ea 60 00 00 8c a0 00 00 8c a0 00 00 ea 60 00 00 75 30 00 01 38 80 00 01 00 00 00 00 00 00 00 00 00 00 00 00 00 00 00 00 00 00 00 00 00 00 00 00 00 00 00 00 00 00 00 00 00 00 00 00 00 00 00 00 00 00 00 00 00 00 00 00 00 00 00 00 00 00 00 00 00 00 00 00 00 00 00 00 00 00 00 00 00 00 00 00 00 00 00 00 00 00 00 00 00 00 00 00 00 00 00 00 00 00 00 00 00 00 00 00 00 00 00 00 00 00 00 00 00 00 00 00 00 00 00 00 00 00 00 00 00 00 00 00 00 00 00 00 00 00 00 00 00 00 00 00 00 00 00 00 00 00 00 00 00 01 00 02 00 00 00 17 00 03 00 1c 00 11 00 39 00 19 00 00 00 00 00 01 00 00 00 00 00 00 00 00 00 00 00 00 00 00 00 00 00 00 00 00 00 00 00 00 f8 f3
2023-03-28 17:58:13.571956 < 01 03 75 30 00 7d 9f e8 01 03 75 ad 00 7d 0e 06
2023-03-28 17:58:13.859788 > 01 03 fa 00 00 00 00 00 00 00 00 00 00 00 00 00 00 00 00 00 00 00 00 00 00 00 00 00 00 00 00 00 00 00 00 00 00 00 00 00 00 00 00 00 00 00 00 00 00 00 00 00 00 00 00 00 64 00 00 00 00 00 64 00 00 00 00 00 00 00 00 00 00 00 3c 00 00 27 10 00 00 00 00 00 00 00 00 00 00 00 00 00 00 00 00 00 00 00 00 00 00 00 00 00 00 00 00 00 00 00 00 00 00 00 00 00 00 00 00 00 00 00 00 00 00 00 00 00 00 00 00 00 00 00 00 00 00 00 00 00 00 00 00 00 00 00 00 00 00 00 00 00 00 00 00 00 00 00 00 00 00 00 00 00 00 00 00 00 00 00 00 00 00 00 00 00 00 00 00 00 00 00 00 00 00 00 00 00 00 00 00 00 00 00 00 00 00 00 00 00 00 00 00 00 00 00 00 00 00 00 00 00 00 00 00 00 00 00 00 00 00 00 00 00 00 00 00 00 00 00 00 00 00 00 00 00 00 00 00 00 00 00 00 00 00 00 00 00 00 00 00 00 00 02 2c
2023-03-28 17:58:14.866391 > 01 03 fa 00 00 00 00 00 00 00 00 00 00 00 00 00 00 00 00 00 00 00 00 00 00 00 00 00 00 00 00 00 00 00 00 00 00 00 00 00 00 00 00 00 00 00 00 00 00 00 00 00 00 00 00 00 00 00 00 00 00 00 00 00 00 00 00 00 00 00 00 00 00 00 00 00 00 00 00 00 00 00 00 00 00 00 00 00 00 00 00 00 00 00 00 00 00 00 00 00 00 00 00 00 00 00 00 00 00 00 00 00 00 00 00 00 00 00 00 00 00 00 00 00 00 00 00 00 00 00 00 00 00 00 00 00 00 00 00 00 00 00 00 00 00 00 00 00 00 00 00 00 00 00 00 00 00 00 00 00 00 00 00 00 00 00 00 00 00 00 00 00 00 00 00 00 00 00 00 00 00 00 00 00 00 00 00 00 00 00 00 00 00 00 00 00 00 00 00 00 00 00 00 00 00 00 00 00 00 00 00 00 00 00 00 00 00 00 00 00 00 00 00 00 00 00 00 00 00 00 00 00 00 00 00 00 00 00 00 00 00 00 00 00 00 00 00 00 00 00 00 00 00 08 e8 01 03 fa 00 00 00 00 00 00 00 00 00 00 00 00 00 00 00 00 00 00 00 00 00 00 00 00 00 00 00 00 00 00 00 00 00 00 00 00 00 00 00 00 00 00 00 00 00 00 00 00 00 00 00 00 00 00 00 00 00 00 00 64 00 0a 00 0a 00 00 00 00 00 00 00 00 00 00 00 00 00 00 00 00 00 00 00 00 00 00 00 00 00 00 00 00 00 00 00 00 00 00 00 00 00 00 00 00 00 00 00 00 00 00 00 00 00 00 00 00 00 00 00 00 00 00 00 00 00 00 00 00 00 00 00 00 00 00 00 00 00 00 00 00 00 00 00 00 00 00 00 00 00 00 00 00 00 00 00 00 00 00 00 00 00 00 00 00 00 00 00 00 00 00 00 00 00 00 00 00 00 00 00 00 00 00 00 00 00 00 00 00 00 00 00 00 00 00 00 00 00 00 00 00 00 00 00 00 00 00 00 00 00 00 00 00 00 00 00 00 00 00 00 00 00 00 00 00 00 00 00 00 00 00 00 00 00 00 00 00 00 00 00 00 00 00 00 00 00 00 00 00 00 00 05 77
2023-03-28 17:58:15.075347 < 01 03 76 2a 00 7d be 6b 01 03 76 a7 00 7d 2e 40 01 03 00 b4 00 14 05 e3
2023-03-28 17:58:15.681552 > 01 03 28 00 00 00 00 00 00 00 00 00 00 00 00 00 00 00 01 00 00 00 00 00 00 00 00 00 00 00 00 00 00 00 00 00 00 00 00 00 00 00 00 33 63 01 03 fa 00 01 08 00 00 00 00 64 00 64 27 10 00 00 17 70 0e 10 52 41 31 2e 30 20 5a 43 42 41 00 06 00 01 00 00 05 dc 00 1e 00 41 00 c8 00 64 00 00 4e 57 43 54 43 48 31 30 30 36 01 00 f2 75 00 01 00 5a 00 00 00 00 20 20 20 4e 65 77 20 45 6e 65 72 67 79 20 20 20 00 01 0d ad 00 00 07 e7 00 03 00 1c 00 11 00 39 00 1c 00 02 07 30 0a 3e 12 8e 14 50 07 30 0a b1 12 5c 14 50 00 00 00 00 00 00 00 00 07 d1 0a 3e 12 8e 14 50 00 7f 00 34 00 7f 00 1b 03 ea 00 19 00 1b 00 1b 00 00 00 00 00 00 00 00 09 c4 00 00 52 41 41 41 32 31 32 30 30 36 00 00 01 31 00 00 00 00 13 b0 00 18 09 e2 09 b4 08 16 08 44 00 14 00 05 09 6f 08 fc 00 00 00 00 00 00 00 00 00 00 00 00 00 96 00 00 01 e4 00 ff 4e 20 00 ff 4e 20 00 ff 4e 20 00 ff 4e 20 00 00 00 00 00 00 00 00 00 00 00 00 00 00 de eb
2023-03-28 17:58:15.882924 < 01 03 00 00 00 7d 85 eb
2023-03-28 17:58:17.185070 > 01 03 fa 17 70 00 00 12 c0 00 32 01 d6 02 3f 12 c0 16 a8 42 a0 04 4c 02 bc 04 4c 02 58 00 00 00 00 00 00 00 00 00 00 00 00 00 00 00 00 00 00 00 00 00 00 00 00 00 00 00 00 00 00 00 00 00 00 00 00 00 00 00 00 00 00 00 00 00 00 00 00 00 00 00 00 00 05 00 00 00 64 00 00 00 01 00 00 00 64 00 64 00 00 00 01 00 01 00 01 00 00 00 00 00 00 00 00 00 00 00 00 00 00 00 00 00 00 00 01 00 00 00 00 00 00 00 00 00 00 00 00 00 00 00 00 00 00 00 64 00 05 00 00 00 00 00 00 00 00 00 00 00 00 00 00 00 00 00 00 00 00 00 01 00 00 00 00 00 00 00 00 00 00 00 00 00 00 00 14 00 64 00 01 00 00 00 00 00 00 00 00 00 00 00 00 00 00 00 1e 04 1e 00 01 00 00 00 00 00 00 00 00 00 00 00 00 00 0a 00 00 00 00 00 00 00 00 00 00 00 00 00 00 00 00 00 00 00 01 00 00 00 00 00 00 00 00 00 00 50 29
2023-03-28 17:58:17.386422 < 01 03 03 e8 00 7d 05 9b
2023-03-28 17:58:18.685265 > 01 03 fa 47 50 4a 30 32 31 39 35 32 32 32 35 37 38 32 41 00 00 00 00 00 00 00 00 00 00 00 00 00 00 00 00 00 00 00 00 00 00 00 00 00 00 00 00 00 00 00 00 00 00 00 00 00 00 00 00 00 00 00 00 00 00 00 00 00 00 00 00 00 00 00 00 00 00 00 00 00 00 00 00 00 00 00 00 00 00 00 00 00 00 00 00 00 00 00 00 00 00 00 00 00 00 00 00 00 00 00 00 00 00 00 00 00 00 00 00 00 00 00 00 00 00 00 00 00 00 00 00 00 00 00 00 00 00 00 00 00 00 00 00 00 00 00 00 00 00 00 00 00 00 00 00 00 00 00 00 00 00 00 00 00 00 00 00 00 00 00 00 00 00 00 00 00 00 00 00 00 00 00 00 00 00 00 00 00 00 00 00 00 00 00 00 00 00 00 00 00 00 00 00 00 00 00 00 00 00 00 00 00 00 00 00 00 00 00 00 00 00 00 00 00 00 00 00 00 00 00 00 00 00 00 00 00 00 00 00 00 00 00 00 00 00 00 00 00 00 00 00 00 00 5b 19
2023-03-28 17:58:18.886590 < 01 03 04 65 00 7d 94 c4
2023-03-28 17:58:20.188013 > 01 04 fa 00 05 00 00 05 14 0d 47 00 02 00 00 02 dd 05 1b 00 04 00 00 02 79 00 01 42 a0 09 ab 07 c4 08 9a 00 fa 00 00 00 00 00 00 00 00 00 00 00 00 00 00 00 00 00 00 00 00 00 00 00 00 00 00 00 00 00 00 00 00 00 00 00 00 00 00 0b d9 13 87 09 1b 00 12 00 00 0b e0 00 00 00 00 00 00 00 00 00 00 00 00 00 00 00 00 00 00 00 00 00 00 00 00 00 45 00 00 16 08 00 7b cc 2e 00 00 00 1f 00 00 0c 24 00 00 00 14 00 00 06 3d 00 00 00 00 00 00 00 00 00 00 00 00 00 00 00 00 00 00 00 00 00 00 00 00 00 00 00 00 00 00 00 00 00 00 00 00 00 00 00 00 00 00 00 00 00 00 00 00 00 00 12 6d 00 f2 00 d8 00 e0 00 00 02 0d 10 b9 10 dd 00 00 00 00 00 00 00 00 00 00 00 00 00 00 00 00 00 00 00 00 00 00 00 00 00 00 00 19 00 00 06 5c 00 00 00 00 00 00 00 01 00 00 00 00 00 00 00 00 00 00 8f c5
2023-03-28 17:58:20.389387 < 01 04 00 00 00 7d 30 2b
2023-03-28 17:58:21.689174 > 01 04 fa 00 05 00 00 00 00 00 00 00 00 00 00 00 00 00 00 00 00 00 00 05 dc 00 00 00 00 02 0c 00 3e 00 00 00 00 00 00 00 00 00 00 00 00 00 00 00 00 00 00 00 b8 00 00 00 00 00 00 00 00 00 00 00 b8 00 00 0a f0 00 00 00 00 00 00 00 00 00 00 0a f0 00 00 00 0e 00 05 0b 88 28 b4 00 00 00 3a 00 00 0d 24 00 00 00 03 00 00 05 ff 00 00 00 2a 00 00 0a f5 00 00 00 2d 00 00 0b 59 00 00 00 67 00 00 19 2e 00 00 00 00 00 00 00 00 00 00 00 00 00 00 00 00 00 00 00 00 00 00 00 00 00 00 00 00 00 00 00 00 00 00 03 e8 00 00 00 61 00 00 00 00 00 3e 14 78 ff 1a 00 0e 19 00 1e dc 31 10 86 86 00 04 00 2c 00 64 16 30 00 00 00 00 00 00 86 86 00 00 00 00 00 00 41 50 41 50 00 00 0c cc 0c c8 00 01 0e 10 0c cb 0c ca 0c cc 0c ca 0c cb 0c ca 0c c9 0c cb 0c c9 0c cb 0c c9 0c c9 00 00 fc 41
2023-03-28 17:58:21.890667 < 01 04 03 e8 00 7d b0 5b
2023-03-28 17:58:23.190217 > 01 04 fa 00 19 00 00 06 5c 00 00 00 00 04 50 00 00 00 00 00 00 00 00 00 00 00 00 00 00 00 47 00 00 17 19 00 00 00 45 00 00 11 39 00 00 0a f0 00 00 0a 28 00 00 00 33 00 01 00 00 0a 1b 00 01 00 00 0b 38 00 00 00 00 00 00 00 00 00 00 00 00 00 00 00 00 00 00 00 00 00 00 00 00 00 00 00 00 00 00 00 00 00 00 00 00 00 00 00 00 00 00 00 00 00 00 00 00 00 00 00 00 00 00 00 00 00 00 00 00 00 00 00 00 00 00 00 00 00 00 00 00 00 00 00 00 00 00 00 00 00 00 00 00 00 01 0c cc 0c c8 00 01 00 10 00 07 00 02 00 9e 00 82 00 03 00 01 00 00 00 3e 00 3e 00 00 00 00 00 00 00 00 00 23 00 c0 00 00 00 00 00 00 00 00 00 00 00 00 00 00 00 00 00 00 00 00 00 00 00 00 00 00 00 00 00 00 00 00 00 00 00 00 00 00 00 00 00 00 00 00 00 00 00 00 00 00 00 00 00 00 00 00 00 00 00 00 00 00 39 07
2023-03-28 17:58:23.391541 < 01 04 04 65 00 7d 21 04
2023-03-28 17:58:25.683821 > 01 04 fa 00 05 00 00 00 00 00 00 00 00 00 00 00 00 00 00 00 00 00 00 0d 48 00 02 05 1c 00 04 00 00 00 00 00 00 00 00 00 00 00 00 00 00 00 00 00 00 00 00 00 00 00 00 00 00 00 00 00 00 00 00 00 00 00 00 00 00 00 00 00 00 00 00 00 00 00 00 00 00 00 00 00 00 00 00 00 00 00 00 00 00 00 00 00 00 00 00 00 00 00 00 00 00 00 00 00 00 00 00 00 00 00 00 00 00 00 00 00 00 05 14 00 00 00 00 00 00 00 00 00 00 00 00 00 00 00 00 00 00 00 00 00 00 00 00 00 00 00 00 00 00 00 00 00 00 00 00 00 00 00 00 00 00 00 00 00 00 00 00 00 00 00 00 00 00 00 00 00 00 00 00 00 00 00 00 00 00 00 00 00 00 00 00 00 00 00 00 00 00 00 00 00 00 0c 02 00 00 00 00 00 00 13 85 09 16 00 00 00 00 00 12 00 00 00 00 ff ff ff a6 00 df 00 00 00 00 00 00 00 00 00 00 00 00 00 00 00 00 00 00 00 00 62 63
2023-03-28 17:58:25.888503 < 01 04 79 18 00 7d a9 70 01 04 79 95 00 7d 39 5b
2023-03-28 17:58:26.179783 > 01 04 fa 00 00 00 00 00 00 00 00 00 00 00 00 00 00 00 00 00 00 00 00 00 00 00 00 00 00 00 00 00 00 00 00 00 00 00 00 00 00 00 00 00 00 00 00 00 00 00 00 00 00 00 00 00 00 00 00 00 00 00 00 00 00 00 00 00 00 00 00 00 00 00 00 00 00 00 00 00 00 00 00 00 00 00 00 00 00 00 00 00 00 00 00 00 00 00 00 00 00 00 00 00 00 00 00 00 00 00 00 00 00 00 00 00 00 00 00 00 00 00 00 00 00 00 00 00 00 00 00 00 00 00 00 00 00 00 00 00 00 00 00 00 00 00 00 00 00 00 00 00 00 ff ff fa 24 00 00 00 2d 00 00 0b 59 00 00 00 2a 00 00 0a f5 00 00 82 c0 00 00 d4 e0 02 0b ff ff ff e9 00 3e 00 64 00 00 31 10 00 00 1e dc 00 90 00 9e 00 00 00 00 00 00 00 00 00 00 00 00 00 00 00 00 00 00 00 00 00 00 00 00 00 00 00 00 00 00 00 00 00 00 00 00 00 00 00 00 00 00 00 00 00 00 00 00 00 00 f5 84
2023-03-28 17:58:26.977828 > 01 03 28 00 00 00 00 00 00 00 00 00 00 00 00 00 00 00 01 00 00 00 00 00 00 00 00 00 00 00 00 00 00 00 00 00 00 00 00 00 00 00 00 33 63 01 03 fa 00 01 08 00 00 00 00 64 00 64 27 10 00 00 17 70 0e 10 52 41 31 2e 30 20 5a 43 42 41 00 06 00 01 00 00 05 dc 00 1e 00 41 00 c8 00 64 00 00 4e 57 43 54 43 48 31 30 30 36 01 00 f2 75 00 01 00 5a 00 00 00 00 20 20 20 4e 65 77 20 45 6e 65 72 67 79 20 20 20 00 01 0d ad 00 00 07 e7 00 03 00 1c 00 11 00 39 00 27 00 02 07 30 0a 3e 12 8e 14 50 07 30 0a b1 12 5c 14 50 00 00 00 00 00 00 00 00 07 d1 0a 3e 12 8e 14 50 00 7f 00 34 00 7f 00 1b 03 ea 00 19 00 1b 00 1b 00 00 00 00 00 00 00 00 09 c4 00 00 52 41 41 41 32 31 32 30 30 36 00 00 01 31 00 00 00 00 13 b0 00 18 09 e2 09 b4 08 16 08 44 00 14 00 05 09 6f 08 fc 00 00 00 00 00 00 00 00 00 00 00 00 00 96 00 00 01 e4 00 ff 4e 20 00 ff 4e 20 00 ff 4e 20 00 ff 4e 20 00 00 00 00 00 00 00 00 00 00 00 00 00 00 33 31
2023-03-28 17:58:27.179607 < 01 03 00 b4 00 14 05 e3 01 03 00 00 00 7d 85 eb
2023-03-28 17:58:28.479709 > 01 03 fa 17 70 00 00 12 c0 00 32 01 d6 02 3f 12 c0 16 a8 42 a0 04 4c 02 bc 04 4c 02 58 00 00 00 00 00 00 00 00 00 00 00 00 00 00 00 00 00 00 00 00 00 00 00 00 00 00 00 00 00 00 00 00 00 00 00 00 00 00 00 00 00 00 00 00 00 00 00 00 00 00 00 00 00 05 00 00 00 64 00 00 00 01 00 00 00 64 00 64 00 00 00 01 00 01 00 01 00 00 00 00 00 00 00 00 00 00 00 00 00 00 00 00 00 00 00 01 00 00 00 00 00 00 00 00 00 00 00 00 00 00 00 00 00 00 00 64 00 05 00 00 00 00 00 00 00 00 00 00 00 00 00 00 00 00 00 00 00 00 00 01 00 00 00 00 00 00 00 00 00 00 00 00 00 00 00 14 00 64 00 01 00 00 00 00 00 00 00 00 00 00 00 00 00 00 00 1e 04 1e 00 01 00 00 00 00 00 00 00 00 00 00 00 00 00 0a 00 00 00 00 00 00 00 00 00 00 00 00 00 00 00 00 00 00 00 01 00 00 00 00 00 00 00 00 00 00 50 29
2023-03-28 17:58:28.680956 < 01 03 03 e8 00 7d 05 9b
2023-03-28 17:58:29.981940 > 01 03 fa 47 50 4a 30 32 31 39 35 32 32 32 35 37 38 32 41 00 00 00 00 00 00 00 00 00 00 00 00 00 00 00 00 00 00 00 00 00 00 00 00 00 00 00 00 00 00 00 00 00 00 00 00 00 00 00 00 00 00 00 00 00 00 00 00 00 00 00 00 00 00 00 00 00 00 00 00 00 00 00 00 00 00 00 00 00 00 00 00 00 00 00 00 00 00 00 00 00 00 00 00 00 00 00 00 00 00 00 00 00 00 00 00 00 00 00 00 00 00 00 00 00 00 00 00 00 00 00 00 00 00 00 00 00 00 00 00 00 00 00 00 00 00 00 00 00 00 00 00 00 00 00 00 00 00 00 00 00 00 00 00 00 00 00 00 00 00 00 00 00 00 00 00 00 00 00 00 00 00 00 00 00 00 00 00 00 00 00 00 00 00 00 00 00 00 00 00 00 00 00 00 00 00 00 00 00 00 00 00 00 00 00 00 00 00 00 00 00 00 00 00 00 00 00 00 00 00 00 00 00 00 00 00 00 00 00 00 00 00 00 00 00 00 00 00 00 00 00 00 00 00 5b 19
2023-03-28 17:58:30.183171 < 01 03 04 65 00 7d 94 c4
2023-03-28 17:58:31.484412 > 01 04 fa 00 05 00 00 05 14 0d 1a 00 02 00 00 02 f3 05 07 00 04 00 00 02 77 00 01 42 a0 09 ac 07 c5 08 9a 00 fa 00 00 00 00 00 00 00 00 00 00 00 00 00 00 00 00 00 00 00 00 00 00 00 00 00 00 00 00 00 00 00 00 00 00 00 00 00 00 0b 8a 13 84 09 20 00 12 00 00 0b c3 00 00 00 00 00 00 00 00 00 00 00 00 00 00 00 00 00 00 00 00 00 00 00 00 00 45 00 00 16 08 00 7b cc 44 00 00 00 1f 00 00 0c 24 00 00 00 14 00 00 06 3d 00 00 00 00 00 00 00 00 00 00 00 00 00 00 00 00 00 00 00 00 00 00 00 00 00 00 00 00 00 00 00 00 00 00 00 00 00 00 00 00 00 00 00 00 00 00 00 00 00 00 12 6d 00 f2 00 d8 00 df 00 00 02 0d 10 b8 10 dd 00 00 00 00 00 00 00 00 00 00 00 00 00 00 00 00 00 00 00 00 00 00 00 00 00 00 00 19 00 00 06 5c 00 00 00 00 00 00 00 01 00 00 00 00 00 00 00 00 00 00 14 37
2023-03-28 17:58:31.685606 < 01 04 00 00 00 7d 30 2b
2023-03-28 17:58:32.986186 > 01 04 fa 00 05 00 00 00 00 00 00 00 00 00 00 00 00 00 00 00 00 00 00 05 dc 00 00 00 00 02 0b 00 3e 00 00 00 00 00 00 00 00 00 00 00 00 00 00 00 00 00 00 00 e5 00 00 00 00 00 00 00 00 00 00 00 e5 00 00 0a 28 00 00 00 00 00 00 00 00 00 00 0a 28 00 00 00 0e 00 05 0b 88 28 b4 00 00 00 3a 00 00 0d 24 00 00 00 03 00 00 05 ff 00 00 00 2a 00 00 0a f5 00 00 00 2d 00 00 0b 59 00 00 00 67 00 00 19 2e 00 00 00 00 00 00 00 00 00 00 00 00 00 00 00 00 00 00 00 00 00 00 00 00 00 00 00 00 00 00 00 00 00 00 03 e8 00 00 00 61 00 00 00 00 00 3e 14 6e ff 1a 00 0e 19 00 1e dc 31 10 86 86 00 04 00 2c 00 64 16 30 00 00 00 00 00 00 86 86 00 00 00 00 00 00 41 50 41 50 00 00 0c cc 0c c8 00 01 0e 10 0c ca 0c ca 0c cb 0c c9 0c cb 0c c9 0c c9 0c cb 0c c9 0c cb 0c c9 0c c9 00 00 37 4f
2023-03-28 17:58:33.187444 < 01 04 03 e8 00 7d b0 5b
2023-03-28 17:58:34.487976 > 01 04 fa 00 19 00 00 06 5c 00 00 00 00 04 50 00 00 00 00 00 00 00 00 00 00 00 00 00 00 00 47 00 00 17 19 00 00 00 45 00 00 11 39 00 00 0a f0 00 00 0a 8c 00 00 00 33 00 01 00 00 0a 1b 00 01 00 00 0b 38 00 00 00 00 00 00 00 00 00 00 00 00 00 00 00 00 00 00 00 00 00 00 00 00 00 00 00 00 00 00 00 00 00 00 00 00 00 00 00 00 00 00 00 00 00 00 00 00 00 00 00 00 00 00 00 00 00 00 00 00 00 00 00 00 00 00 00 00 00 00 00 00 00 00 00 00 00 00 00 00 00 00 00 00 00 01 0c cb 0c c7 00 01 00 10 00 07 00 02 00 9e 00 82 00 03 00 01 00 00 00 3e 00 3e 00 00 00 00 00 00 00 00 00 23 00 c0 00 00 00 00 00 00 00 00 00 00 00 00 00 00 00 00 00 00 00 00 00 00 00 00 00 00 00 00 00 00 00 00 00 00 00 00 00 00 00 00 00 00 00 00 00 00 00 00 00 00 00 00 00 00 00 00 00 00 00 00 00 00 3a c1
2023-03-28 17:58:34.689559 < 01 04 04 65 00 7d 21 04
2023-03-28 17:58:37.283983 > 01 03 28 00 00 00 00 00 00 00 00 00 00 00 00 00 00 00 01 00 00 00 00 00 00 00 00 00 00 00 00 00 00 00 00 00 00 00 00 00 00 00 00 33 63 01 03 fa 00 01 08 00 00 00 00 64 00 64 27 10 00 00 17 70 0e 10 52 41 31 2e 30 20 5a 43 42 41 00 06 00 01 00 00 05 dc 00 1e 00 41 00 c8 00 64 00 00 4e 57 43 54 43 48 31 30 30 36 01 00 f2 75 00 01 00 5a 00 00 00 00 20 20 20 4e 65 77 20 45 6e 65 72 67 79 20 20 20 00 01 0d ad 00 00 07 e7 00 03 00 1c 00 11 00 39 00 31 00 02 07 30 0a 3e 12 8e 14 50 07 30 0a b1 12 5c 14 50 00 00 00 00 00 00 00 00 07 d1 0a 3e 12 8e 14 50 00 7f 00 34 00 7f 00 1b 03 ea 00 19 00 1b 00 1b 00 00 00 00 00 00 00 00 09 c4 00 00 52 41 41 41 32 31 32 30 30 36 00 00 01 31 00 00 00 00 13 b0 00 18 09 e2 09 b4 08 16 08 44 00 14 00 05 09 6f 08 fc 00 00 00 00 00 00 00 00 00 00 00 00 00 96 00 00 01 e4 00 ff 4e 20 00 ff 4e 20 00 ff 4e 20 00 ff 4e 20 00 00 00 00 00 00 00 00 00 00 00 00 00 00 22 88
2023-03-28 17:58:37.485788 < 01 03 00 b4 00 14 05 e3 01 03 00 00 00 7d 85 eb
2023-03-28 17:58:38.786669 > 01 03 fa 17 70 00 00 12 c0 00 32 01 d6 02 3f 12 c0 16 a8 42 a0 04 4c 02 bc 04 4c 02 58 00 00 00 00 00 00 00 00 00 00 00 00 00 00 00 00 00 00 00 00 00 00 00 00 00 00 00 00 00 00 00 00 00 00 00 00 00 00 00 00 00 00 00 00 00 00 00 00 00 00 00 00 00 05 00 00 00 64 00 00 00 01 00 00 00 64 00 64 00 00 00 01 00 01 00 01 00 00 00 00 00 00 00 00 00 00 00 00 00 00 00 00 00 00 00 01 00 00 00 00 00 00 00 00 00 00 00 00 00 00 00 00 00 00 00 64 00 05 00 00 00 00 00 00 00 00 00 00 00 00 00 00 00 00 00 00 00 00 00 01 00 00 00 00 00 00 00 00 00 00 00 00 00 00 00 14 00 64 00 01 00 00 00 00 00 00 00 00 00 00 00 00 00 00 00 1e 04 1e 00 01 00 00 00 00 00 00 00 00 00 00 00 00 00 0a 00 00 00 00 00 00 00 00 00 00 00 00 00 00 00 00 00 00 00 01 00 00 00 00 00 00 00 00 00 00 50 29
2023-03-28 17:58:38.988868 < 01 03 03 e8 00 7d 05 9b
2023-03-28 17:58:40.286767 > 01 03 fa 47 50 4a 30 32 31 39 35 32 32 32 35 37 38 32 41 00 00 00 00 00 00 00 00 00 00 00 00 00 00 00 00 00 00 00 00 00 00 00 00 00 00 00 00 00 00 00 00 00 00 00 00 00 00 00 00 00 00 00 00 00 00 00 00 00 00 00 00 00 00 00 00 00 00 00 00 00 00 00 00 00 00 00 00 00 00 00 00 00 00 00 00 00 00 00 00 00 00 00 00 00 00 00 00 00 00 00 00 00 00 00 00 00 00 00 00 00 00 00 00 00 00 00 00 00 00 00 00 00 00 00 00 00 00 00 00 00 00 00 00 00 00 00 00 00 00 00 00 00 00 00 00 00 00 00 00 00 00 00 00 00 00 00 00 00 00 00 00 00 00 00 00 00 00 00 00 00 00 00 00 00 00 00 00 00 00 00 00 00 00 00 00 00 00 00 00 00 00 00 00 00 00 00 00 00 00 00 00 00 00 00 00 00 00 00 00 00 00 00 00 00 00 00 00 00 00 00 00 00 00 00 00 00 00 00 00 00 00 00 00 00 00 00 00 00 00 00 00 00 00 5b 19
2023-03-28 17:58:40.487592 < 01 03 04 65 00 7d 94 c4
2023-03-28 17:58:41.790372 > 01 04 fa 00 05 00 00 05 14 0d 40 00 02 00 00 02 d5 05 1c 00 04 00 00 02 67 00 01 42 a0 09 b0 07 c5 08 9a 00 fa 00 00 00 00 00 00 00 00 00 00 00 00 00 00 00 00 00 00 00 00 00 00 00 00 00 00 00 00 00 00 00 00 00 00 00 00 00 00 0b aa 13 85 09 2a 00 12 00 00 0b c5 00 00 00 00 00 00 00 00 00 00 00 00 00 00 00 00 00 00 00 00 00 00 00 00 00 45 00 00 16 08 00 7b cc 59 00 00 00 1f 00 00 0c 24 00 00 00 14 00 00 06 3d 00 00 00 00 00 00 00 00 00 00 00 00 00 00 00 00 00 00 00 00 00 00 00 00 00 00 00 00 00 00 00 00 00 00 00 00 00 00 00 00 00 00 00 00 00 00 00 00 00 00 12 6d 00 f2 00 d8 00 df 00 00 02 0d 10 b9 10 dd 00 00 00 00 00 00 00 00 00 00 00 00 00 00 00 00 00 00 00 00 00 00 00 00 00 00 00 19 00 00 06 5c 00 00 00 00 00 00 00 01 00 00 00 00 00 00 00 00 00 00 cd f0
2023-03-28 17:58:41.992622 < 01 04 00 00 00 7d 30 2b
2023-03-28 17:58:43.292640 > 01 04 fa 00 05 00 00 00 00 00 00 00 00 00 00 00 00 00 00 00 00 00 00 05 dc 00 00 00 00 02 0b 00 3e 00 00 00 00 00 00 00 00 00 00 00 00 00 00 00 00 00 00 00 92 00 00 00 00 00 00 00 00 00 00 00 92 00 00 0a 8c 00 00 00 00 00 00 00 00 00 00 0a 8c 00 00 00 0e 00 05 0b 88 28 b4 00 00 00 3a 00 00 0d 24 00 00 00 03 00 00 05 ff 00 00 00 2a 00 00 0a f5 00 00 00 2d 00 00 0b 59 00 00 00 67 00 00 19 2e 00 00 00 00 00 00 00 00 00 00 00 00 00 00 00 00 00 00 00 00 00 00 00 00 00 00 00 00 00 00 00 00 00 00 03 e8 00 00 00 61 00 00 00 00 00 3e 14 6e ff 1a 00 0e 19 00 1e dc 31 10 86 86 00 04 00 2c 00 64 16 30 00 00 00 00 00 00 86 86 00 00 00 00 00 00 41 50 41 50 00 00 0c cb 0c c7 00 01 0e 10 0c ca 0c ca 0c cc 0c c9 0c cb 0c c9 0c c9 0c cc 0c c9 0c cb 0c c9 0c c9 00 00 a7 b2
2023-03-28 17:58:43.493861 < 01 04 03 e8 00 7d b0 5b
2023-03-28 17:58:44.794052 > 01 04 fa 00 19 00 00 06 5c 00 00 00 00 04 50 00 00 00 00 00 00 00 00 00 00 00 00 00 00 00 47 00 00 17 19 00 00 00 45 00 00 11 39 00 00 0a f0 00 00 0a 28 00 00 00 33 00 01 00 00 0a 1b 00 01 00 00 0b 38 00 00 00 00 00 00 00 00 00 00 00 00 00 00 00 00 00 00 00 00 00 00 00 00 00 00 00 00 00 00 00 00 00 00 00 00 00 00 00 00 00 00 00 00 00 00 00 00 00 00 00 00 00 00 00 00 00 00 00 00 00 00 00 00 00 00 00 00 00 00 00 00 00 00 00 00 00 00 00 00 00 00 00 00 00 01 0c cc 0c c8 00 01 00 10 00 07 00 02 00 9e 00 82 00 03 00 01 00 00 00 3e 00 3e 00 00 00 00 00 00 00 00 00 23 00 c0 00 00 00 00 00 00 00 00 00 00 00 00 00 00 00 00 00 00 00 00 00 00 00 00 00 00 00 00 00 00 00 00 00 00 00 00 00 00 00 00 00 00 00 00 00 00 00 00 00 00 00 00 00 00 00 00 00 00 00 00 00 00 39 07
2023-03-28 17:58:44.996345 < 01 04 04 65 00 7d 21 04
2023-03-28 17:58:47.576011 > 01 03 28 00 00 00 00 00 00 00 00 00 00 00 00 00 00 00 01 00 00 00 00 00 00 00 00 00 00 00 00 00 00 00 00 00 00 00 00 00 00 00 00 33 63 01 03 fa 00 01 08 00 00 00 00 64 00 64 27 10 00 00 17 70 0e 10 52 41 31 2e 30 20 5a 43 42 41 00 06 00 01 00 00 05 dc 00 1e 00 41 00 c8 00 64 00 00 4e 57 43 54 43 48 31 30 30 36 01 00 f2 75 00 01 00 5a 00 00 00 00 20 20 20 4e 65 77 20 45 6e 65 72 67 79 20 20 20 00 01 0d ad 00 00 07 e7 00 03 00 1c 00 11 00 39 00 3b 00 02 07 30 0a 3e 12 8e 14 50 07 30 0a b1 12 5c 14 50 00 00 00 00 00 00 00 00 07 d1 0a 3e 12 8e 14 50 00 7f 00 34 00 7f 00 1b 03 ea 00 19 00 1b 00 1b 00 00 00 00 00 00 00 00 09 c4 00 00 52 41 41 41 32 31 32 30 30 36 00 00 01 31 00 00 00 00 13 b0 00 18 09 e2 09 b4 08 16 08 44 00 14 00 05 09 6f 08 fc 00 00 00 00 00 00 00 00 00 00 00 00 00 96 00 00 01 e4 00 ff 4e 20 00 ff 4e 20 00 ff 4e 20 00 ff 4e 20 00 00 00 00 00 00 00 00 00 00 00 00 00 00 76 25
2023-03-28 17:58:47.778780 < 01 03 00 b4 00 14 05 e3 01 03 00 00 00 7d 85 eb
2023-03-28 17:58:49.077955 > 01 03 fa 17 70 00 00 12 c0 00 32 01 d6 02 3f 12 c0 16 a8 42 a0 04 4c 02 bc 04 4c 02 58 00 00 00 00 00 00 00 00 00 00 00 00 00 00 00 00 00 00 00 00 00 00 00 00 00 00 00 00 00 00 00 00 00 00 00 00 00 00 00 00 00 00 00 00 00 00 00 00 00 00 00 00 00 05 00 00 00 64 00 00 00 01 00 00 00 64 00 64 00 00 00 01 00 01 00 01 00 00 00 00 00 00 00 00 00 00 00 00 00 00 00 00 00 00 00 01 00 00 00 00 00 00 00 00 00 00 00 00 00 00 00 00 00 00 00 64 00 05 00 00 00 00 00 00 00 00 00 00 00 00 00 00 00 00 00 00 00 00 00 01 00 00 00 00 00 00 00 00 00 00 00 00 00 00 00 14 00 64 00 01 00 00 00 00 00 00 00 00 00 00 00 00 00 00 00 1e 04 1e 00 01 00 00 00 00 00 00 00 00 00 00 00 00 00 0a 00 00 00 00 00 00 00 00 00 00 00 00 00 00 00 00 00 00 00 01 00 00 00 00 00 00 00 00 00 00 50 29
2023-03-28 17:58:49.279398 < 01 03 03 e8 00 7d 05 9b
2023-03-28 17:58:50.594840 > 01 03 fa 47 50 4a 30 32 31 39 35 32 32 32 35 37 38 32 41 00 00 00 00 00 00 00 00 00 00 00 00 00 00 00 00 00 00 00 00 00 00 00 00 00 00 00 00 00 00 00 00 00 00 00 00 00 00 00 00 00 00 00 00 00 00 00 00 00 00 00 00 00 00 00 00 00 00 00 00 00 00 00 00 00 00 00 00 00 00 00 00 00 00 00 00 00 00 00 00 00 00 00 00 00 00 00 00 00 00 00 00 00 00 00 00 00 00 00 00 00 00 00 00 00 00 00 00 00 00 00 00 00 00 00 00 00 00 00 00 00 00 00 00 00 00 00 00 00 00 00 00 00 00 00 00 00 00 00 00 00 00 00 00 00 00 00 00 00 00 00 00 00 00 00 00 00 00 00 00 00 00 00 00 00 00 00 00 00 00 00 00 00 00 00 00 00 00 00 00 00 00 00 00 00 00 00 00 00 00 00 00 00 00 00 00 00 00 00 00 00 00 00 00 00 00 00 00 00 00 00 00 00 00 00 00 00 00 00 00 00 00 00 00 00 00 00 00 00 00 00 00 00 00 5b 19
2023-03-28 17:58:50.796228 < 01 03 04 65 00 7d 94 c4
2023-03-28 17:58:52.080980 > 01 04 fa 00 05 00 00 04 b0 0d 1b 00 02 00 00 02 b1 05 08 00 04 00 00 02 56 00 01 42 a0 09 ae 07 c4 08 9a 00 fa 00 00 00 00 00 00 00 00 00 00 00 00 00 00 00 00 00 00 00 00 00 00 00 00 00 00 00 00 00 00 00 00 00 00 00 00 00 00 0b 52 13 82 09 12 00 12 00 00 0b 8a 00 00 00 00 00 00 00 00 00 00 00 00 00 00 00 00 00 00 00 00 00 00 00 00 00 45 00 00 16 08 00 7b cc 6d 00 00 00 1f 00 00 0c 24 00 00 00 14 00 00 06 3d 00 00 00 00 00 00 00 00 00 00 00 00 00 00 00 00 00 00 00 00 00 00 00 00 00 00 00 00 00 00 00 00 00 00 00 00 00 00 00 00 00 00 00 00 00 00 00 00 00 00 12 6d 00 f1 00 d8 00 df 00 00 02 0d 10 b8 10 dd 00 00 00 00 00 00 00 00 00 00 00 00 00 00 00 00 00 00 00 00 00 00 00 00 00 00 00 19 00 00 06 5c 00 00 00 00 00 00 00 01 00 00 00 00 00 00 00 00 00 00 0f 46
2023-03-28 17:58:52.283332 < 01 04 00 00 00 7d 30 2b
2023-03-28 17:58:53.582955 > 01 04 fa 00 05 00 00 00 00 00 00 00 00 00 00 00 00 00 00 00 00 00 00 05 dc 00 00 00 00 02 0b 00 3e 00 00 00 00 00 00 00 00 00 00 00 00 00 00 00 00 00 00 00 bc 00 00 00 00 00 00 00 00 00 00 00 bc 00 00 0a 28 00 00 00 00 00 00 00 00 00 00 0a 28 00 00 00 0e 00 05 0b 87 28 b4 00 00 00 3a 00 00 0d 24 00 00 00 03 00 00 05 ff 00 00 00 2a 00 00 0a f5 00 00 00 2d 00 00 0b 59 00 00 00 67 00 00 19 2e 00 00 00 00 00 00 00 00 00 00 00 00 00 00 00 00 00 00 00 00 00 00 00 00 00 00 00 00 00 00 00 00 00 00 03 e8 00 00 00 61 00 00 00 00 00 3e 14 6e ff 1a 00 0e 19 00 1e dc 31 10 86 86 00 03 00 2c 00 64 16 30 00 00 00 00 00 00 86 86 00 00 00 00 00 00 41 50 41 50 00 00 0c cc 0c c7 00 01 0e 10 0c cb 0c c9 0c cb 0c c9 0c cb 0c c9 0c c9 0c cb 0c c9 0c cb 0c c9 0c c9 00 00 98 f2
2023-03-28 17:58:53.785166 < 01 04 03 e8 00 7d b0 5b
2023-03-28 17:58:55.086204 > 01 04 fa 00 19 00 00 06 5c 00 00 00 00 04 50 00 00 00 00 00 00 00 00 00 00 00 00 00 00 00 47 00 00 17 19 00 00 00 45 00 00 11 39 00 00 0a 8c 00 00 0a 8c 00 00 00 33 00 01 00 00 0a 1b 00 01 00 00 0b 38 00 00 00 00 00 00 00 00 00 00 00 00 00 00 00 00 00 00 00 00 00 00 00 00 00 00 00 00 00 00 00 00 00 00 00 00 00 00 00 00 00 00 00 00 00 00 00 00 00 00 00 00 00 00 00 00 00 00 00 00 00 00 00 00 00 00 00 00 00 00 00 00 00 00 00 00 00 00 00 00 00 00 00 00 00 01 0c cc 0c c7 00 01 00 10 00 07 00 02 00 9e 00 82 00 03 00 01 00 00 00 3e 00 3e 00 00 00 00 00 00 00 00 00 23 00 c0 00 00 00 00 00 00 00 00 00 00 00 00 00 00 00 00 00 00 00 00 00 00 00 00 00 00 00 00 00 00 00 00 00 00 00 00 00 00 00 00 00 00 00 00 00 00 00 00 00 00 00 00 00 00 00 00 00 00 00 00 00 00 3c 34
2023-03-28 17:58:55.287917 < 01 04 04 65 00 7d 21 04
2023-03-28 17:58:57.881949 > 01 03 28 00 00 00 00 00 00 00 00 00 00 00 00 00 00 00 01 00 00 00 00 00 00 00 00 00 00 00 00 00 00 00 00 00 00 00 00 00 00 00 00 33 63 01 03 fa 00 01 08 00 00 00 00 64 00 64 27 10 00 00 17 70 0e 10 52 41 31 2e 30 20 5a 43 42 41 00 06 00 01 00 00 05 dc 00 1e 00 41 00 c8 00 64 00 00 4e 57 43 54 43 48 31 30 30 36 01 00 f2 75 00 01 00 5a 00 00 00 00 20 20 20 4e 65 77 20 45 6e 65 72 67 79 20 20 20 00 01 0d ad 00 00 07 e7 00 03 00 1c 00 11 00 3a 00 0a 00 02 07 30 0a 3e 12 8e 14 50 07 30 0a b1 12 5c 14 50 00 00 00 00 00 00 00 00 07 d1 0a 3e 12 8e 14 50 00 7f 00 34 00 7f 00 1b 03 ea 00 19 00 1b 00 1b 00 00 00 00 00 00 00 00 09 c4 00 00 52 41 41 41 32 31 32 30 30 36 00 00 01 31 00 00 00 00 13 b0 00 18 09 e2 09 b4 08 16 08 44 00 14 00 05 09 6f 08 fc 00 00 00 00 00 00 00 00 00 00 00 00 00 96 00 00 01 e4 00 ff 4e 20 00 ff 4e 20 00 ff 4e 20 00 ff 4e 20 00 00 00 00 00 00 00 00 00 00 00 00 00 00 64 e7
2023-03-28 17:58:58.083604 < 01 03 00 b4 00 14 05 e3 01 03 00 00 00 7d 85 eb
2023-03-28 17:58:59.384681 > 01 03 fa 17 70 00 00 12 c0 00 32 01 d6 02 3f 12 c0 16 a8 42 a0 04 4c 02 bc 04 4c 02 58 00 00 00 00 00 00 00 00 00 00 00 00 00 00 00 00 00 00 00 00 00 00 00 00 00 00 00 00 00 00 00 00 00 00 00 00 00 00 00 00 00 00 00 00 00 00 00 00 00 00 00 00 00 05 00 00 00 64 00 00 00 01 00 00 00 64 00 64 00 00 00 01 00 01 00 01 00 00 00 00 00 00 00 00 00 00 00 00 00 00 00 00 00 00 00 01 00 00 00 00 00 00 00 00 00 00 00 00 00 00 00 00 00 00 00 64 00 05 00 00 00 00 00 00 00 00 00 00 00 00 00 00 00 00 00 00 00 00 00 01 00 00 00 00 00 00 00 00 00 00 00 00 00 00 00 14 00 64 00 01 00 00 00 00 00 00 00 00 00 00 00 00 00 00 00 1e 04 1e 00 01 00 00 00 00 00 00 00 00 00 00 00 00 00 0a 00 00 00 00 00 00 00 00 00 00 00 00 00 00 00 00 00 00 00 01 00 00 00 00 00 00 00 00 00 00 50 29
2023-03-28 17:58:59.585876 < 01 03 03 e8 00 7d 05 9b
2023-03-28 17:59:00.884498 > 01 03 fa 47 50 4a 30 32 31 39 35 32 32 32 35 37 38 32 41 00 00 00 00 00 00 00 00 00 00 00 00 00 00 00 00 00 00 00 00 00 00 00 00 00 00 00 00 00 00 00 00 00 00 00 00 00 00 00 00 00 00 00 00 00 00 00 00 00 00 00 00 00 00 00 00 00 00 00 00 00 00 00 00 00 00 00 00 00 00 00 00 00 00 00 00 00 00 00 00 00 00 00 00 00 00 00 00 00 00 00 00 00 00 00 00 00 00 00 00 00 00 00 00 00 00 00 00 00 00 00 00 00 00 00 00 00 00 00 00 00 00 00 00 00 00 00 00 00 00 00 00 00 00 00 00 00 00 00 00 00 00 00 00 00 00 00 00 00 00 00 00 00 00 00 00 00 00 00 00 00 00 00 00 00 00 00 00 00 00 00 00 00 00 00 00 00 00 00 00 00 00 00 00 00 00 00 00 00 00 00 00 00 00 00 00 00 00 00 00 00 00 00 00 00 00 00 00 00 00 00 00 00 00 00 00 00 00 00 00 00 00 00 00 00 00 00 00 00 00 00 00 00 00 5b 19
2023-03-28 17:59:01.086788 < 01 03 04 65 00 7d 94 c4
2023-03-28 17:59:02.387113 > 01 04 fa 00 05 00 00 04 b0 0d 2a 00 02 00 00 02 c2 04 f9 00 04 00 00 02 4e 00 01 42 a0 09 b0 07 c4 08 99 00 fa 00 00 00 00 00 00 00 00 00 00 00 00 00 00 00 00 00 00 00 00 00 00 00 00 00 00 00 00 00 00 00 00 00 00 00 00 00 00 0b 7d 13 83 09 0c 00 12 00 00 0b 5f 00 00 00 00 00 00 00 00 00 00 00 00 00 00 00 00 00 00 00 00 00 00 00 00 00 45 00 00 16 08 00 7b cc 82 00 00 00 1f 00 00 0c 24 00 00 00 14 00 00 06 3d 00 00 00 00 00 00 00 00 00 00 00 00 00 00 00 00 00 00 00 00 00 00 00 00 00 00 00 00 00 00 00 00 00 00 00 00 00 00 00 00 00 00 00 00 00 00 00 00 00 00 12 6d 00 f1 00 d8 00 df 00 00 02 0d 10 b8 10 de 00 00 00 00 00 00 00 00 00 00 00 00 00 00 00 00 00 00 00 00 00 00 00 00 00 00 00 19 00 00 06 5c 00 00 00 00 00 00 00 01 00 00 00 00 00 00 00 00 00 00 53 d5
2023-03-28 17:59:02.588458 < 01 04 00 00 00 7d 30 2b
2023-03-28 17:59:03.874438 > 01 04 fa 00 05 00 00 00 00 00 00 00 00 00 00 00 00 00 00 00 00 00 00 05 dc 00 00 00 00 02 0b 00 3e 00 00 00 00 00 00 00 00 00 00 00 00 00 00 00 00 00 00 00 73 00 00 00 00 00 00 00 00 00 00 00 73 00 00 0a 28 00 00 00 00 00 00 00 00 00 00 0a 28 00 00 00 0e 00 05 0b 87 28 b4 00 00 00 3a 00 00 0d 24 00 00 00 03 00 00 05 ff 00 00 00 2a 00 00 0a f5 00 00 00 2d 00 00 0b 59 00 00 00 67 00 00 19 2e 00 00 00 00 00 00 00 00 00 00 00 00 00 00 00 00 00 00 00 00 00 00 00 00 00 00 00 00 00 00 00 00 00 00 03 e8 00 00 00 61 00 00 00 00 00 3e 14 6e ff 1a 00 0e 19 00 1e dc 31 10 86 86 00 03 00 2c 00 64 16 30 00 00 00 00 00 00 86 86 00 00 00 00 00 00 41 50 41 50 00 00 0c cb 0c c7 00 01 0e 10 0c ca 0c ca 0c cb 0c ca 0c cb 0c c9 0c c9 0c cb 0c c9 0c cb 0c c9 0c c9 00 00 65 f0
2023-03-28 17:59:04.075653 < 01 04 03 e8 00 7d b0 5b
2023-03-28 17:59:05.376182 > 01 04 fa 00 19 00 00 06 5c 00 00 00 00 04 50 00 00 00 00 00 00 00 00 00 00 00 00 00 00 00 47 00 00 17 19 00 00 00 45 00 00 11 39 00 00 0a 8c 00 00 0a 28 00 00 00 33 00 01 00 00 0a 1b 00 01 00 00 0b 38 00 00 00 00 00 00 00 00 00 00 00 00 00 00 00 00 00 00 00 00 00 00 00 00 00 00 00 00 00 00 00 00 00 00 00 00 00 00 00 00 00 00 00 00 00 00 00 00 00 00 00 00 00 00 00 00 00 00 00 00 00 00 00 00 00 00 00 00 00 00 00 00 00 00 00 00 00 00 00 00 00 00 00 00 00 01 0c cb 0c c8 00 01 00 10 00 04 00 02 00 9e 00 82 00 03 00 01 00 00 00 3e 00 3e 00 00 00 00 00 00 00 00 00 23 00 c0 00 00 00 00 00 00 00 00 00 00 00 00 00 00 00 00 00 00 00 00 00 00 00 00 00 00 00 00 00 00 00 00 00 00 00 00 00 00 00 00 00 00 00 00 00 00 00 00 00 00 00 00 00 00 00 00 00 00 00 00 00 00 f8 f3
2023-03-28 17:59:05.576857 < 01 04 04 65 00 7d 21 04
2023-03-28 17:59:08.187102 > 01 03 28 00 00 00 00 00 00 00 00 00 00 00 00 00 00 00 01 00 00 00 00 00 00 00 00 00 00 00 00 00 00 00 00 00 00 00 00 00 00 00 00 33 63 01 03 fa 00 01 08 00 00 00 00 64 00 64 27 10 00 00 17 70 0e 10 52 41 31 2e 30 20 5a 43 42 41 00 06 00 01 00 00 05 dc 00 1e 00 41 00 c8 00 64 00 00 4e 57 43 54 43 48 31 30 30 36 01 00 f2 75 00 01 00 5a 00 00 00 00 20 20 20 4e 65 77 20 45 6e 65 72 67 79 20 20 20 00 01 0d ad 00 00 07 e7 00 03 00 1c 00 11 00 3a 00 14 00 02 07 30 0a 3e 12 8e 14 50 07 30 0a b1 12 5c 14 50 00 00 00 00 00 00 00 00 07 d1 0a 3e 12 8e 14 50 00 7f 00 34 00 7f 00 1b 03 ea 00 19 00 1b 00 1b 00 00 00 00 00 00 00 00 09 c4 00 00 52 41 41 41 32 31 32 30 30 36 00 00 01 31 00 00 00 00 13 b0 00 18 09 e2 09 b4 08 16 08 44 00 14 00 05 09 6f 08 fc 00 00 00 00 00 00 00 00 00 00 00 00 00 96 00 00 01 e4 00 ff 4e 20 00 ff 4e 20 00 ff 4e 20 00 ff 4e 20 00 00 00 00 00 00 00 00 00 00 00 00 00 00 9b 50
2023-03-28 17:59:08.388921 < 01 03 00 b4 00 14 05 e3 01 03 00 00 00 7d 85 eb
2023-03-28 17:59:09.691319 > 01 03 fa 17 70 00 00 12 c0 00 32 01 d6 02 3f 12 c0 16 a8 42 a0 04 4c 02 bc 04 4c 02 58 00 00 00 00 00 00 00 00 00 00 00 00 00 00 00 00 00 00 00 00 00 00 00 00 00 00 00 00 00 00 00 00 00 00 00 00 00 00 00 00 00 00 00 00 00 00 00 00 00 00 00 00 00 05 00 00 00 64 00 00 00 01 00 00 00 64 00 64 00 00 00 01 00 01 00 01 00 00 00 00 00 00 00 00 00 00 00 00 00 00 00 00 00 00 00 01 00 00 00 00 00 00 00 00 00 00 00 00 00 00 00 00 00 00 00 64 00 05 00 00 00 00 00 00 00 00 00 00 00 00 00 00 00 00 00 00 00 00 00 01 00 00 00 00 00 00 00 00 00 00 00 00 00 00 00 14 00 64 00 01 00 00 00 00 00 00 00 00 00 00 00 00 00 00 00 1e 04 1e 00 01 00 00 00 00 00 00 00 00 00 00 00 00 00 0a 00 00 00 00 00 00 00 00 00 00 00 00 00 00 00 00 00 00 00 01 00 00 00 00 00 00 00 00 00 00 50 29
2023-03-28 17:59:09.892781 < 01 03 03 e8 00 7d 05 9b
2023-03-28 17:59:11.175764 > 01 03 fa 47 50 4a 30 32 31 39 35 32 32 32 35 37 38 32 41 00 00 00 00 00 00 00 00 00 00 00 00 00 00 00 00 00 00 00 00 00 00 00 00 00 00 00 00 00 00 00 00 00 00 00 00 00 00 00 00 00 00 00 00 00 00 00 00 00 00 00 00 00 00 00 00 00 00 00 00 00 00 00 00 00 00 00 00 00 00 00 00 00 00 00 00 00 00 00 00 00 00 00 00 00 00 00 00 00 00 00 00 00 00 00 00 00 00 00 00 00 00 00 00 00 00 00 00 00 00 00 00 00 00 00 00 00 00 00 00 00 00 00 00 00 00 00 00 00 00 00 00 00 00 00 00 00 00 00 00 00 00 00 00 00 00 00 00 00 00 00 00 00 00 00 00 00 00 00 00 00 00 00 00 00 00 00 00 00 00 00 00 00 00 00 00 00 00 00 00 00 00 00 00 00 00 00 00 00 00 00 00 00 00 00 00 00 00 00 00 00 00 00 00 00 00 00 00 00 00 00 00 00 00 00 00 00 00 00 00 00 00 00 00 00 00 00 00 00 00 00 00 00 00 5b 19
2023-03-28 17:59:11.377446 < 01 03 04 65 00 7d 94 c4
2023-03-28 17:59:12.678515 > 01 04 fa 00 05 00 00 04 b0 0d 48 00 01 00 00 02 84 05 16 00 04 00 00 02 50 00 01 42 a0 09 ac 07 c4 08 9a 00 fa 00 00 00 00 00 00 00 00 00 00 00 00 00 00 00 00 00 00 00 00 00 00 00 00 00 00 00 00 00 00 00 00 00 00 00 00 00 00 0b 46 13 81 08 fb 00 12 00 00 0b 46 00 00 00 00 00 00 00 00 00 00 00 00 00 00 00 00 00 00 00 00 00 00 00 00 00 45 00 00 16 08 00 7b cc 97 00 00 00 1f 00 00 0c 24 00 00 00 14 00 00 06 3d 00 00 00 00 00 00 00 00 00 00 00 00 00 00 00 00 00 00 00 00 00 00 00 00 00 00 00 00 00 00 00 00 00 00 00 00 00 00 00 00 00 00 00 00 00 00 00 00 00 00 12 6d 00 f1 00 d7 00 df 00 00 02 0d 10 b8 10 de 00 00 00 00 00 00 00 00 00 00 00 00 00 00 00 00 00 00 00 00 00 00 00 00 00 00 00 19 00 00 06 5c 00 00 00 00 00 00 00 01 00 00 00 00 00 00 00 00 00 00 a7 4f
2023-03-28 17:59:12.879935 < 01 04 00 00 00 7d 30 2b
2023-03-28 17:59:14.181508 > 01 04 fa 00 05 00 00 00 00 00 00 00 00 00 00 00 00 00 00 00 00 00 00 05 dc 00 00 00 00 02 0b 00 3e 00 00 00 00 00 00 00 00 00 00 00 00 00 00 00 00 00 00 00 3d 00 00 00 00 00 00 00 00 00 00 00 3d 00 00 0a 8c 00 00 00 00 00 00 00 00 00 00 0a 8c 00 00 00 0e 00 05 0b 87 28 b4 00 00 00 3a 00 00 0d 24 00 00 00 03 00 00 05 ff 00 00 00 2a 00 00 0a f5 00 00 00 2d 00 00 0b 59 00 00 00 67 00 00 19 2e 00 00 00 00 00 00 00 00 00 00 00 00 00 00 00 00 00 00 00 00 00 00 00 00 00 00 00 00 00 00 00 00 00 00 03 e8 00 00 00 61 00 00 00 00 00 3e 14 6e ff 1a 00 0e 19 00 1e dc 31 10 86 86 00 04 00 2c 00 64 16 30 00 00 00 00 00 00 86 86 00 00 00 00 00 00 41 50 41 50 00 00 0c cb 0c c7 00 01 0e 10 0c ca 0c c9 0c cb 0c c9 0c cb 0c c9 0c c8 0c cb 0c c9 0c cb 0c c9 0c c9 00 00 26 b0
2023-03-28 17:59:14.383254 < 01 04 03 e8 00 7d b0 5b
2023-03-28 17:59:15.683009 > 01 04 fa 00 19 00 00 06 5c 00 00 00 00 04 50 00 00 00 00 00 00 00 00 00 00 00 00 00 00 00 47 00 00 17 19 00 00 00 45 00 00 11 39 00 00 0a 8c 00 00 0a 8c 00 00 00 33 00 01 00 00 0a 1b 00 01 00 00 0b 38 00 00 00 00 00 00 00 00 00 00 00 00 00 00 00 00 00 00 00 00 00 00 00 00 00 00 00 00 00 00 00 00 00 00 00 00 00 00 00 00 00 00 00 00 00 00 00 00 00 00 00 00 00 00 00 00 00 00 00 00 00 00 00 00 00 00 00 00 00 00 00 00 00 00 00 00 00 00 00 00 00 00 00 00 00 01 0c cb 0c c7 00 01 00 10 00 04 00 02 00 9e 00 82 00 03 00 01 00 00 00 3e 00 3e 00 00 00 00 00 00 00 00 00 23 00 c0 00 00 00 00 00 00 00 00 00 00 00 00 00 00 00 00 00 00 00 00 00 00 00 00 00 00 00 00 00 00 00 00 00 00 00 00 00 00 00 00 00 00 00 00 00 00 00 00 00 00 00 00 00 00 00 00 00 00 00 00 00 00 8a f4
2023-03-28 17:59:15.884277 < 01 04 04 65 00 7d 21 04
2023-03-28 17:59:18.478915 > 01 03 28 00 00 00 00 00 00 00 00 00 00 00 00 00 00 00 01 00 00 00 00 00 00 00 00 00 00 00 00 00 00 00 00 00 00 00 00 00 00 00 00 33 63 01 03 fa 00 01 08 00 00 00 00 64 00 64 27 10 00 00 17 70 0e 10 52 41 31 2e 30 20 5a 43 42 41 00 06 00 01 00 00 05 dc 00 1e 00 41 00 c8 00 64 00 00 4e 57 43 54 43 48 31 30 30 36 01 00 f2 75 00 01 00 5a 00 00 00 00 20 20 20 4e 65 77 20 45 6e 65 72 67 79 20 20 20 00 01 0d ad 00 00 07 e7 00 03 00 1c 00 11 00 3a 00 1e 00 02 07 30 0a 3e 12 8e 14 50 07 30 0a b1 12 5c 14 50 00 00 00 00 00 00 00 00 07 d1 0a 3e 12 8e 14 50 00 7f 00 34 00 7f 00 1b 03 ea 00 19 00 1b 00 1b 00 00 00 00 00 00 00 00 09 c4 00 00 52 41 41 41 32 31 32 30 30 36 00 00 01 31 00 00 00 00 13 b0 00 18 09 e2 09 b4 08 16 08 44 00 14 00 05 09 6f 08 fc 00 00 00 00 00 00 00 00 00 00 00 00 00 96 00 00 01 e4 00 ff 4e 20 00 ff 4e 20 00 ff 4e 20 00 ff 4e 20 00 00 00 00 00 00 00 00 00 00 00 00 00 00 cf fd
2023-03-28 17:59:18.680975 < 01 03 00 b4 00 14 05 e3 01 03 00 00 00 7d 85 eb
2023-03-28 17:59:19.981859 > 01 03 fa 17 70 00 00 12 c0 00 32 01 d6 02 3f 12 c0 16 a8 42 a0 04 4c 02 bc 04 4c 02 58 00 00 00 00 00 00 00 00 00 00 00 00 00 00 00 00 00 00 00 00 00 00 00 00 00 00 00 00 00 00 00 00 00 00 00 00 00 00 00 00 00 00 00 00 00 00 00 00 00 00 00 00 00 05 00 00 00 64 00 00 00 01 00 00 00 64 00 64 00 00 00 01 00 01 00 01 00 00 00 00 00 00 00 00 00 00 00 00 00 00 00 00 00 00 00 01 00 00 00 00 00 00 00 00 00 00 00 00 00 00 00 00 00 00 00 64 00 05 00 00 00 00 00 00 00 00 00 00 00 00 00 00 00 00 00 00 00 00 00 01 00 00 00 00 00 00 00 00 00 00 00 00 00 00 00 14 00 64 00 01 00 00 00 00 00 00 00 00 00 00 00 00 00 00 00 1e 04 1e 00 01 00 00 00 00 00 00 00 00 00 00 00 00 00 0a 00 00 00 00 00 00 00 00 00 00 00 00 00 00 00 00 00 00 00 01 00 00 00 00 00 00 00 00 00 00 50 29
2023-03-28 17:59:20.183399 < 01 03 03 e8 00 7d 05 9b
2023-03-28 17:59:21.481906 > 01 03 fa 47 50 4a 30 32 31 39 35 32 32 32 35 37 38 32 41 00 00 00 00 00 00 00 00 00 00 00 00 00 00 00 00 00 00 00 00 00 00 00 00 00 00 00 00 00 00 00 00 00 00 00 00 00 00 00 00 00 00 00 00 00 00 00 00 00 00 00 00 00 00 00 00 00 00 00 00 00 00 00 00 00 00 00 00 00 00 00 00 00 00 00 00 00 00 00 00 00 00 00 00 00 00 00 00 00 00 00 00 00 00 00 00 00 00 00 00 00 00 00 00 00 00 00 00 00 00 00 00 00 00 00 00 00 00 00 00 00 00 00 00 00 00 00 00 00 00 00 00 00 00 00 00 00 00 00 00 00 00 00 00 00 00 00 00 00 00 00 00 00 00 00 00 00 00 00 00 00 00 00 00 00 00 00 00 00 00 00 00 00 00 00 00 00 00 00 00 00 00 00 00 00 00 00 00 00 00 00 00 00 00 00 00 00 00 00 00 00 00 00 00 00 00 00 00 00 00 00 00 00 00 00 00 00 00 00 00 00 00 00 00 00 00 00 00 00 00 00 00 00 00 5b 19
2023-03-28 17:59:21.684266 < 01 03 04 65 00 7d 94 c4
2023-03-28 17:59:22.984565 > 01 04 fa 00 05 00 00 04 b0 0d 13 00 02 00 00 02 b6 05 2d 00 04 00 00 02 3f 00 01 42 a0 09 ae 07 c4 08 9b 00 fa 00 00 00 00 00 00 00 00 00 00 00 00 00 00 00 00 00 00 00 00 00 00 00 00 00 00 00 00 00 00 00 00 00 00 00 00 00 00 0b 66 13 80 08 f7 00 12 00 00 0b 68 00 00 00 00 00 00 00 00 00 00 00 00 00 00 00 00 00 00 00 00 00 00 00 00 00 45 00 00 16 08 00 7b cc ab 00 00 00 1f 00 00 0c 24 00 00 00 14 00 00 06 3d 00 00 00 00 00 00 00 00 00 00 00 00 00 00 00 00 00 00 00 00 00 00 00 00 00 00 00 00 00 00 00 00 00 00 00 00 00 00 00 00 00 00 00 00 00 00 00 00 00 00 12 6d 00 f1 00 d7 00 de 00 00 02 0d 10 b9 10 de 00 00 00 00 00 00 00 00 00 00 00 00 00 00 00 00 00 00 00 00 00 00 00 00 00 00 00 19 00 00 06 5c 00 00 00 00 00 00 00 01 00 00 00 00 00 00 00 00 00 00 83 a6
2023-03-28 17:59:23.185767 < 01 04 00 00 00 7d 30 2b
2023-03-28 17:59:24.486059 > 01 04 fa 00 05 00 00 00 00 00 00 00 00 00 00 00 00 00 00 00 00 00 00 05 dc 00 00 00 00 02 0b 00 3e 00 00 00 19 00 00 00 00 00 00 00 00 00 00 00 19 00 00 00 00 00 00 00 00 00 00 00 00 00 00 00 00 00 00 0a 8c 00 00 00 00 00 00 00 00 00 00 0a 8c 00 00 00 0e 00 05 0b 87 28 b4 00 00 00 3a 00 00 0d 24 00 00 00 03 00 00 05 ff 00 00 00 2a 00 00 0a f5 00 00 00 2d 00 00 0b 59 00 00 00 67 00 00 19 2e 00 00 00 00 00 00 00 00 00 00 00 00 00 00 00 00 00 00 00 00 00 00 00 00 00 00 00 00 00 00 00 00 00 00 03 e8 00 00 00 61 00 00 00 00 00 3e 14 6e ff 1a 00 0e 19 00 1e dc 31 10 86 86 00 05 00 2c 00 64 16 30 00 00 00 00 00 00 86 86 00 00 00 00 00 00 41 50 41 50 00 00 0c cb 0c c7 00 01 0e 10 0c ca 0c c9 0c cc 0c c9 0c cb 0c c9 0c c8 0c cb 0c c8 0c cb 0c c9 0c c9 00 00 7a 95
2023-03-28 17:59:24.687206 < 01 04 03 e8 00 7d b0 5b
2023-03-28 17:59:25.990164 > 01 04 fa 00 19 00 00 06 5c 00 00 00 00 04 50 00 00 00 00 00 00 00 00 00 00 00 00 00 00 00 47 00 00 17 19 00 00 00 45 00 00 11 39 00 00 0a 8c 00 00 0a 8c 00 00 00 33 00 01 00 00 0a 1b 00 01 00 00 0b 38 00 00 00 00 00 00 00 00 00 00 00 00 00 00 00 00 00 00 00 00 00 00 00 00 00 00 00 00 00 00 00 00 00 00 00 00 00 00 00 00 00 00 00 00 00 00 00 00 00 00 00 00 00 00 00 00 00 00 00 00 00 00 00 00 00 00 00 00 00 00 00 00 00 00 00 00 00 00 00 00 00 00 00 00 00 01 0c cc 0c c7 00 01 00 10 00 07 00 02 00 9d 00 82 00 03 00 01 00 00 00 3e 00 3e 00 00 00 00 00 00 00 00 00 23 00 c0 00 00 00 00 00 00 00 00 00 00 00 00 00 00 00 00 00 00 00 00 00 00 00 00 00 00 00 00 00 00 00 00 00 00 00 00 00 00 00 00 00 00 00 00 00 00 00 00 00 00 00 00 00 00 00 00 00 00 00 00 00 00 8d f2
2023-03-28 17:59:26.191618 < 01 04 04 65 00 7d 21 04
2023-03-28 17:59:28.785448 > 01 03 28 00 00 00 00 00 00 00 00 00 00 00 00 00 00 00 01 00 00 00 00 00 00 00 00 00 00 00 00 00 00 00 00 00 00 00 00 00 00 00 00 33 63 01 03 fa 00 01 08 00 00 00 00 64 00 64 27 10 00 00 17 70 0e 10 52 41 31 2e 30 20 5a 43 42 41 00 06 00 01 00 00 05 dc 00 1e 00 41 00 c8 00 64 00 00 4e 57 43 54 43 48 31 30 30 36 01 00 f2 75 00 01 00 5a 00 00 00 00 20 20 20 4e 65 77 20 45 6e 65 72 67 79 20 20 20 00 01 0d ad 00 00 07 e7 00 03 00 1c 00 11 00 3a 00 29 00 02 07 30 0a 3e 12 8e 14 50 07 30 0a b1 12 5c 14 50 00 00 00 00 00 00 00 00 07 d1 0a 3e 12 8e 14 50 00 7f 00 34 00 7f 00 1b 03 ea 00 19 00 1b 00 1b 00 00 00 00 00 00 00 00 09 c4 00 00 52 41 41 41 32 31 32 30 30 36 00 00 01 31 00 00 00 00 13 b0 00 18 09 e2 09 b4 08 16 08 44 00 14 00 05 09 6f 08 fc 00 00 00 00 00 00 00 00 00 00 00 00 00 96 00 00 01 e4 00 ff 4e 20 00 ff 4e 20 00 ff 4e 20 00 ff 4e 20 00 00 00 00 00 00 00 00 00 00 00 00 00 00 bb 2e
2023-03-28 17:59:28.987170 < 01 03 00 b4 00 14 05 e3 01 03 00 00 00 7d 85 eb
2023-03-28 17:59:30.286251 > 01 03 fa 17 70 00 00 12 c0 00 32 01 d6 02 3f 12 c0 16 a8 42 a0 04 4c 02 bc 04 4c 02 58 00 00 00 00 00 00 00 00 00 00 00 00 00 00 00 00 00 00 00 00 00 00 00 00 00 00 00 00 00 00 00 00 00 00 00 00 00 00 00 00 00 00 00 00 00 00 00 00 00 00 00 00 00 05 00 00 00 64 00 00 00 01 00 00 00 64 00 64 00 00 00 01 00 01 00 01 00 00 00 00 00 00 00 00 00 00 00 00 00 00 00 00 00 00 00 01 00 00 00 00 00 00 00 00 00 00 00 00 00 00 00 00 00 00 00 64 00 05 00 00 00 00 00 00 00 00 00 00 00 00 00 00 00 00 00 00 00 00 00 01 00 00 00 00 00 00 00 00 00 00 00 00 00 00 00 14 00 64 00 01 00 00 00 00 00 00 00 00 00 00 00 00 00 00 00 1e 04 1e 00 01 00 00 00 00 00 00 00 00 00 00 00 00 00 0a 00 00 00 00 00 00 00 00 00 00 00 00 00 00 00 00 00 00 00 01 00 00 00 00 00 00 00 00 00 00 50 29
2023-03-28 17:59:30.488537 < 01 03 03 e8 00 7d 05 9b
2023-03-28 17:59:31.788103 > 01 03 fa 47 50 4a 30 32 31 39 35 32 32 32 35 37 38 32 41 00 00 00 00 00 00 00 00 00 00 00 00 00 00 00 00 00 00 00 00 00 00 00 00 00 00 00 00 00 00 00 00 00 00 00 00 00 00 00 00 00 00 00 00 00 00 00 00 00 00 00 00 00 00 00 00 00 00 00 00 00 00 00 00 00 00 00 00 00 00 00 00 00 00 00 00 00 00 00 00 00 00 00 00 00 00 00 00 00 00 00 00 00 00 00 00 00 00 00 00 00 00 00 00 00 00 00 00 00 00 00 00 00 00 00 00 00 00 00 00 00 00 00 00 00 00 00 00 00 00 00 00 00 00 00 00 00 00 00 00 00 00 00 00 00 00 00 00 00 00 00 00 00 00 00 00 00 00 00 00 00 00 00 00 00 00 00 00 00 00 00 00 00 00 00 00 00 00 00 00 00 00 00 00 00 00 00 00 00 00 00 00 00 00 00 00 00 00 00 00 00 00 00 00 00 00 00 00 00 00 00 00 00 00 00 00 00 00 00 00 00 00 00 00 00 00 00 00 00 00 00 00 00 00 5b 19
2023-03-28 17:59:31.989351 < 01 03 04 65 00 7d 94 c4
2023-03-28 17:59:33.292013 > 01 04 fa 00 05 00 00 04 b0 0c c8 00 02 00 00 02 bd 05 2d 00 04 00 00 02 3e 00 01 42 a0 09 ae 07 c3 08 9b 00 fa 00 00 00 00 00 00 00 00 00 00 00 00 00 00 00 00 00 00 00 00 00 00 00 00 00 00 00 00 00 00 00 00 00 00 00 00 00 00 0b 16 13 80 09 0d 00 11 00 00 0b 4e 00 00 00 00 00 00 00 00 00 00 00 00 00 00 00 00 00 00 00 00 00 00 00 00 00 45 00 00 16 08 00 7b cc c0 00 00 00 1f 00 00 0c 24 00 00 00 14 00 00 06 3d 00 00 00 00 00 00 00 00 00 00 00 00 00 00 00 00 00 00 00 00 00 00 00 00 00 00 00 00 00 00 00 00 00 00 00 00 00 00 00 00 00 00 00 00 00 00 00 00 00 00 12 6d 00 f0 00 d7 00 de 00 00 02 0d 10 ba 10 dc 00 00 00 00 00 00 00 00 00 00 00 00 00 00 00 00 00 00 00 00 00 00 00 00 00 00 00 19 00 00 06 5c 00 00 00 00 00 00 00 01 00 00 00 00 00 00 00 00 00 00 e0 f0
2023-03-28 17:59:33.493641 < 01 04 00 00 00 7d 30 2b
2023-03-28 17:59:34.776245 > 01 04 fa 00 05 00 00 00 00 00 00 00 00 00 00 00 00 00 00 00 00 00 00 05 dc 00 00 00 00 02 0b 00 3e 00 00 00 00 00 00 00 00 00 00 00 00 00 00 00 00 00 00 00 22 00 00 00 00 00 00 00 00 00 00 00 22 00 00 0a 8c 00 00 00 00 00 00 00 00 00 00 0a 8c 00 00 00 0e 00 05 0b 87 28 b4 00 00 00 3a 00 00 0d 24 00 00 00 03 00 00 05 ff 00 00 00 2a 00 00 0a f5 00 00 00 2d 00 00 0b 59 00 00 00 67 00 00 19 2e 00 00 00 00 00 00 00 00 00 00 00 00 00 00 00 00 00 00 00 00 00 00 00 00 00 00 00 00 00 00 00 00 00 00 03 e8 00 00 00 61 00 00 00 00 00 3e 14 6e ff 1a 00 0e 19 00 1e dc 31 10 86 86 00 04 00 2c 00 64 16 30 00 00 00 00 00 00 86 86 00 00 00 00 00 00 41 50 41 50 00 00 0c cb 0c c7 00 01 0e 10 0c ca 0c c9 0c cb 0c c9 0c cb 0c c9 0c c8 0c cb 0c c9 0c cb 0c c9 0c c9 00 00 09 4b
2023-03-28 17:59:34.978714 < 01 04 03 e8 00 7d b0 5b
2023-03-28 17:59:36.278135 > 01 04 fa 00 19 00 00 06 5c 00 00 00 00 04 50 00 00 00 00 00 00 00 00 00 00 00 00 00 00 00 47 00 00 17 19 00 00 00 45 00 00 11 39 00 00 0a 8c 00 00 0a 8c 00 00 00 33 00 01 00 00 0a 1b 00 01 00 00 0b 38 00 00 00 00 00 00 00 00 00 00 00 00 00 00 00 00 00 00 00 00 00 00 00 00 00 00 00 00 00 00 00 00 00 00 00 00 00 00 00 00 00 00 00 00 00 00 00 00 00 00 00 00 00 00 00 00 00 00 00 00 00 00 00 00 00 00 00 00 00 00 00 00 00 00 00 00 00 00 00 00 00 00 00 00 00 01 0c cb 0c c7 00 01 00 10 00 07 00 02 00 9d 00 82 00 03 00 01 00 00 00 3e 00 3e 00 00 00 00 00 00 00 00 00 23 00 c0 00 00 00 00 00 00 00 00 00 00 00 00 00 00 00 00 00 00 00 00 00 00 00 00 00 00 00 00 00 00 00 00 00 00 00 00 00 00 00 00 00 00 00 00 00 00 00 00 00 00 00 00 00 00 00 00 00 00 00 00 00 00 fc 33
2023-03-28 17:59:36.479316 < 01 04 04 65 00 7d 21 04
2023-03-28 17:59:38.786493 > 01 04 fa 00 05 00 00 00 00 00 00 00 00 00 00 00 00 00 00 00 00 00 00 0c b7 00 02 05 1b 00 04 00 00 00 00 00 00 00 00 00 00 00 00 00 00 00 00 00 00 00 00 00 00 00 00 00 00 00 00 00 00 00 00 00 00 00 00 00 00 00 00 00 00 00 00 00 00 00 00 00 00 00 00 00 00 00 00 00 00 00 00 00 00 00 00 00 00 00 00 00 00 00 00 00 00 00 00 00 00 00 00 00 00 00 00 00 00 00 00 00 00 04 b0 00 00 00 00 00 00 00 00 00 00 00 00 00 00 00 00 00 00 00 00 00 00 00 00 00 00 00 00 00 00 00 00 00 00 00 00 00 00 00 00 00 00 00 00 00 00 00 00 00 00 00 00 00 00 00 00 00 00 00 00 00 00 00 00 00 00 00 00 00 00 00 00 00 00 00 00 00 00 00 00 00 00 0b 2c 00 00 01 a0 00 00 13 80 09 12 00 00 00 00 00 11 00 00 00 00 ff ff ff ad 00 de 00 00 00 00 00 00 00 00 00 00 00 00 00 00 00 00 00 00 00 00 7f 5b
2023-03-28 17:59:38.990860 < 01 04 79 18 00 7d a9 70 01 04 79 95 00 7d 39 5b
2023-03-28 17:59:39.283213 > 01 04 fa 00 00 00 00 00 00 00 00 00 00 00 00 00 00 00 00 00 00 00 00 00 00 00 00 00 00 00 00 00 00 00 00 00 00 00 00 00 00 00 00 00 00 00 00 00 00 00 00 00 00 00 00 00 00 00 00 00 00 00 00 00 00 00 00 00 00 00 00 00 00 00 00 00 00 00 00 00 00 00 00 00 00 00 00 00 00 00 00 00 00 00 00 00 00 00 00 00 00 00 00 00 00 00 00 00 00 00 00 00 00 00 00 00 00 00 00 00 00 00 00 00 00 00 00 00 00 00 00 00 00 00 00 00 00 00 00 00 00 00 00 00 00 00 00 00 00 00 00 00 00 ff ff fa 24 00 00 00 2d 00 00 0b 59 00 00 00 2a 00 00 0a f5 00 00 82 c0 00 00 d4 e0 02 0b ff ff ff e9 00 3e 00 64 00 00 31 10 00 00 1e dc 00 90 00 9d 00 00 00 00 00 00 00 00 00 00 00 00 00 00 00 00 00 00 00 00 00 00 00 00 00 00 00 00 00 00 00 00 00 00 00 00 00 00 00 00 00 00 00 00 00 00 00 00 00 00 92 52
2023-03-28 17:59:39.492471 < 01 03 00 b4 00 14 05 e3
2023-03-28 17:59:40.081499 > 01 03 28 00 00 00 00 00 00 00 00 00 00 00 00 00 00 00 01 00 00 00 00 00 00 00 00 00 00 00 00 00 00 00 00 00 00 00 00 00 00 00 00 33 63 01 03 fa 00 01 08 00 00 00 00 64 00 64 27 10 00 00 17 70 0e 10 52 41 31 2e 30 20 5a 43 42 41 00 06 00 01 00 00 05 dc 00 1e 00 41 00 c8 00 64 00 00 4e 57 43 54 43 48 31 30 30 36 01 00 f2 75 00 01 00 5a 00 00 00 00 20 20 20 4e 65 77 20 45 6e 65 72 67 79 20 20 20 00 01 0d ad 00 00 07 e7 00 03 00 1c 00 11 00 3a 00 34 00 02 07 30 0a 3e 12 8e 14 50 07 30 0a b1 12 5c 14 50 00 00 00 00 00 00 00 00 07 d1 0a 3e 12 8e 14 50 00 7f 00 34 00 7f 00 1b 03 ea 00 19 00 1b 00 1b 00 00 00 00 00 00 00 00 09 c4 00 00 52 41 41 41 32 31 32 30 30 36 00 00 01 31 00 00 00 00 13 b0 00 18 09 e2 09 b4 08 16 08 44 00 14 00 05 09 6f 08 fc 00 00 00 00 00 00 00 00 00 00 00 00 00 96 00 00 01 e4 00 ff 4e 20 00 ff 4e 20 00 ff 4e 20 00 ff 4e 20 00 00 00 00 00 00 00 00 00 00 00 00 00 00 23 6b
2023-03-28 17:59:40.283074 < 01 03 00 00 00 7d 85 eb
2023-03-28 17:59:41.583279 > 01 03 fa 17 70 00 00 12 c0 00 32 01 d6 02 3f 12 c0 16 a8 42 a0 04 4c 02 bc 04 4c 02 58 00 00 00 00 00 00 00 00 00 00 00 00 00 00 00 00 00 00 00 00 00 00 00 00 00 00 00 00 00 00 00 00 00 00 00 00 00 00 00 00 00 00 00 00 00 00 00 00 00 00 00 00 00 05 00 00 00 64 00 00 00 01 00 00 00 64 00 64 00 00 00 01 00 01 00 01 00 00 00 00 00 00 00 00 00 00 00 00 00 00 00 00 00 00 00 01 00 00 00 00 00 00 00 00 00 00 00 00 00 00 00 00 00 00 00 64 00 05 00 00 00 00 00 00 00 00 00 00 00 00 00 00 00 00 00 00 00 00 00 01 00 00 00 00 00 00 00 00 00 00 00 00 00 00 00 14 00 64 00 01 00 00 00 00 00 00 00 00 00 00 00 00 00 00 00 1e 04 1e 00 01 00 00 00 00 00 00 00 00 00 00 00 00 00 0a 00 00 00 00 00 00 00 00 00 00 00 00 00 00 00 00 00 00 00 01 00 00 00 00 00 00 00 00 00 00 50 29
2023-03-28 17:59:41.785580 < 01 03 03 e8 00 7d 05 9b
2023-03-28 17:59:43.085110 > 01 03 fa 47 50 4a 30 32 31 39 35 32 32 32 35 37 38 32 41 00 00 00 00 00 00 00 00 00 00 00 00 00 00 00 00 00 00 00 00 00 00 00 00 00 00 00 00 00 00 00 00 00 00 00 00 00 00 00 00 00 00 00 00 00 00 00 00 00 00 00 00 00 00 00 00 00 00 00 00 00 00 00 00 00 00 00 00 00 00 00 00 00 00 00 00 00 00 00 00 00 00 00 00 00 00 00 00 00 00 00 00 00 00 00 00 00 00 00 00 00 00 00 00 00 00 00 00 00 00 00 00 00 00 00 00 00 00 00 00 00 00 00 00 00 00 00 00 00 00 00 00 00 00 00 00 00 00 00 00 00 00 00 00 00 00 00 00 00 00 00 00 00 00 00 00 00 00 00 00 00 00 00 00 00 00 00 00 00 00 00 00 00 00 00 00 00 00 00 00 00 00 00 00 00 00 00 00 00 00 00 00 00 00 00 00 00 00 00 00 00 00 00 00 00 00 00 00 00 00 00 00 00 00 00 00 00 00 00 00 00 00 00 00 00 00 00 00 00 00 00 00 00 00 5b 19
2023-03-28 17:59:43.286213 < 01 03 04 65 00 7d 94 c4
2023-03-28 17:59:44.587442 > 01 04 fa 00 05 00 00 04 b0 0c d1 00 01 00 00 02 8b 04 f4 00 04 00 00 02 37 00 01 42 a0 09 ab 07 c3 08 9a 00 fa 00 00 00 00 00 00 00 00 00 00 00 00 00 00 00 00 00 00 00 00 00 00 00 00 00 00 00 00 00 00 00 00 00 00 00 00 00 00 0b 16 13 83 09 03 00 12 00 00 0b 1c 00 00 00 00 00 00 00 00 00 00 00 00 00 00 00 00 00 00 00 00 00 00 00 00 00 45 00 00 16 08 00 7b cc d6 00 00 00 1f 00 00 0c 24 00 00 00 14 00 00 06 3d 00 00 00 00 00 00 00 00 00 00 00 00 00 00 00 00 00 00 00 00 00 00 00 00 00 00 00 00 00 00 00 00 00 00 00 00 00 00 00 00 00 00 00 00 00 00 00 00 00 00 12 6d 00 f0 00 d7 00 de 00 00 02 0d 10 b8 10 dd 00 00 00 00 00 00 00 00 00 00 00 00 00 00 00 00 00 00 00 00 00 00 00 00 00 00 00 19 00 00 06 5c 00 00 00 00 00 00 00 01 00 00 00 00 00 00 00 00 00 00 e0 bf
2023-03-28 17:59:44.789838 < 01 04 00 00 00 7d 30 2b
2023-03-28 17:59:46.090119 > 01 04 fa 00 05 00 00 00 00 00 00 00 00 00 00 00 00 00 00 00 00 00 00 05 dc 00 00 00 00 02 0b 00 3e 00 00 00 26 00 00 00 00 00 00 00 00 00 00 00 26 00 00 00 00 00 00 00 00 00 00 00 00 00 00 00 00 00 00 0a 8c 00 00 00 00 00 00 00 00 00 00 0a 8c 00 00 00 0e 00 05 0b 87 28 b4 00 00 00 3a 00 00 0d 24 00 00 00 03 00 00 05 ff 00 00 00 2a 00 00 0a f5 00 00 00 2d 00 00 0b 59 00 00 00 67 00 00 19 2e 00 00 00 00 00 00 00 00 00 00 00 00 00 00 00 00 00 00 00 00 00 00 00 00 00 00 00 00 00 00 00 00 00 00 03 e8 00 00 00 61 00 00 00 00 00 3e 14 6e ff 1a 00 0e 19 00 1e dc 31 10 86 86 00 05 00 2c 00 64 16 30 00 00 00 00 00 00 86 86 00 00 00 00 00 00 41 50 41 50 00 00 0c cb 0c c7 00 01 0e 10 0c ca 0c c9 0c cc 0c c9 0c cb 0c c9 0c c9 0c cb 0c c8 0c cb 0c c9 0c c9 00 00 f5 f3
2023-03-28 17:59:46.291233 < 01 04 03 e8 00 7d b0 5b
2023-03-28 17:59:47.591986 > 01 04 fa 00 19 00 00 06 5c 00 00 00 00 04 50 00 00 00 00 00 00 00 00 00 00 00 00 00 00 00 47 00 00 17 19 00 00 00 45 00 00 11 39 00 00 0a 8c 00 00 0a 8c 00 00 00 33 00 01 00 00 0a 1b 00 01 00 00 0b 38 00 00 00 00 00 00 00 00 00 00 00 00 00 00 00 00 00 00 00 00 00 00 00 00 00 00 00 00 00 00 00 00 00 00 00 00 00 00 00 00 00 00 00 00 00 00 00 00 00 00 00 00 00 00 00 00 00 00 00 00 00 00 00 00 00 00 00 00 00 00 00 00 00 00 00 00 00 00 00 00 00 00 00 00 00 01 0c cc 0c c7 00 01 00 10 00 07 00 02 00 9d 00 82 00 03 00 01 00 00 00 3e 00 3e 00 00 00 00 00 00 00 00 00 23 00 c0 00 00 00 00 00 00 00 00 00 00 00 00 00 00 00 00 00 00 00 00 00 00 00 00 00 00 00 00 00 00 00 00 00 00 00 00 00 00 00 00 00 00 00 00 00 00 00 00 00 00 00 00 00 00 00 00 00 00 00 00 00 00 8d f2
2023-03-28 17:59:47.793569 < 01 04 04 65 00 7d 21 04
2023-03-28 17:59:50.388183 > 01 03 28 00 00 00 00 00 00 00 00 00 00 00 00 00 00 00 01 00 00 00 00 00 00 00 00 00 00 00 00 00 00 00 00 00 00 00 00 00 00 00 00 33 63 01 03 fa 00 01 08 00 00 00 00 64 00 64 27 10 00 00 17 70 0e 10 52 41 31 2e 30 20 5a 43 42 41 00 06 00 01 00 00 05 dc 00 1e 00 41 00 c8 00 64 00 00 4e 57 43 54 43 48 31 30 30 36 01 00 f2 75 00 01 00 5a 00 00 00 00 20 20 20 4e 65 77 20 45 6e 65 72 67 79 20 20 20 00 01 0d ad 00 00 07 e7 00 03 00 1c 00 11 00 3b 00 02 00 02 07 30 0a 3e 12 8e 14 50 07 30 0a b1 12 5c 14 50 00 00 00 00 00 00 00 00 07 d1 0a 3e 12 8e 14 50 00 7f 00 34 00 7f 00 1b 03 ea 00 19 00 1b 00 1b 00 00 00 00 00 00 00 00 09 c4 00 00 52 41 41 41 32 31 32 30 30 36 00 00 01 31 00 00 00 00 13 b0 00 18 09 e2 09 b4 08 16 08 44 00 14 00 05 09 6f 08 fc 00 00 00 00 00 00 00 00 00 00 00 00 00 96 00 00 01 e4 00 ff 4e 20 00 ff 4e 20 00 ff 4e 20 00 ff 4e 20 00 00 00 00 00 00 00 00 00 00 00 00 00 00 12 45
2023-03-28 17:59:50.589943 < 01 03 00 b4 00 14 05 e3 01 03 00 00 00 7d 85 eb
2023-03-28 17:59:51.889757 > 01 03 fa 17 70 00 00 12 c0 00 32 01 d6 02 3f 12 c0 16 a8 42 a0 04 4c 02 bc 04 4c 02 58 00 00 00 00 00 00 00 00 00 00 00 00 00 00 00 00 00 00 00 00 00 00 00 00 00 00 00 00 00 00 00 00 00 00 00 00 00 00 00 00 00 00 00 00 00 00 00 00 00 00 00 00 00 05 00 00 00 64 00 00 00 01 00 00 00 64 00 64 00 00 00 01 00 01 00 01 00 00 00 00 00 00 00 00 00 00 00 00 00 00 00 00 00 00 00 01 00 00 00 00 00 00 00 00 00 00 00 00 00 00 00 00 00 00 00 64 00 05 00 00 00 00 00 00 00 00 00 00 00 00 00 00 00 00 00 00 00 00 00 01 00 00 00 00 00 00 00 00 00 00 00 00 00 00 00 14 00 64 00 01 00 00 00 00 00 00 00 00 00 00 00 00 00 00 00 1e 04 1e 00 01 00 00 00 00 00 00 00 00 00 00 00 00 00 0a 00 00 00 00 00 00 00 00 00 00 00 00 00 00 00 00 00 00 00 01 00 00 00 00 00 00 00 00 00 00 50 29
2023-03-28 17:59:52.090975 < 01 03 03 e8 00 7d 05 9b
2023-03-28 17:59:53.391809 > 01 03 fa 47 50 4a 30 32 31 39 35 32 32 32 35 37 38 32 41 00 00 00 00 00 00 00 00 00 00 00 00 00 00 00 00 00 00 00 00 00 00 00 00 00 00 00 00 00 00 00 00 00 00 00 00 00 00 00 00 00 00 00 00 00 00 00 00 00 00 00 00 00 00 00 00 00 00 00 00 00 00 00 00 00 00 00 00 00 00 00 00 00 00 00 00 00 00 00 00 00 00 00 00 00 00 00 00 00 00 00 00 00 00 00 00 00 00 00 00 00 00 00 00 00 00 00 00 00 00 00 00 00 00 00 00 00 00 00 00 00 00 00 00 00 00 00 00 00 00 00 00 00 00 00 00 00 00 00 00 00 00 00 00 00 00 00 00 00 00 00 00 00 00 00 00 00 00 00 00 00 00 00 00 00 00 00 00 00 00 00 00 00 00 00 00 00 00 00 00 00 00 00 00 00 00 00 00 00 00 00 00 00 00 00 00 00 00 00 00 00 00 00 00 00 00 00 00 00 00 00 00 00 00 00 00 00 00 00 00 00 00 00 00 00 00 00 00 00 00 00 00 00 00 5b 19
2023-03-28 17:59:53.594150 < 01 03 04 65 00 7d 94 c4
2023-03-28 17:59:54.879484 > 01 04 fa 00 05 00 00 01 2c 0e 24 00 00 00 00 00 b0 05 c0 00 00 00 00 00 89 00 01 42 a0 09 ad 07 c4 08 99 00 fa 00 00 00 00 00 00 00 00 00 00 00 00 00 00 00 00 00 00 00 00 00 00 00 00 00 00 00 00 00 00 00 00 00 00 00 00 00 00 03 8d 13 84 09 0d 00 0d 00 00 04 4a 00 00 00 00 00 00 00 00 00 00 00 00 00 00 00 00 00 00 00 00 00 00 00 00 00 45 00 00 16 08 00 7b cc eb 00 00 00 1f 00 00 0c 24 00 00 00 14 00 00 06 3d 00 00 00 00 00 00 00 00 00 00 00 00 00 00 00 00 00 00 00 00 00 00 00 00 00 00 00 00 00 00 00 00 00 00 00 00 00 00 00 00 00 00 00 00 00 00 00 00 00 00 12 6d 00 ef 00 d7 00 de 00 00 02 0d 10 9f 10 c6 00 00 00 00 00 00 00 00 00 00 00 00 00 00 00 00 00 00 00 00 00 00 00 00 00 00 00 19 00 00 06 5c 00 00 00 00 00 00 00 01 00 00 00 00 00 00 00 00 00 00 21 ac
2023-03-28 17:59:55.081058 < 01 04 00 00 00 7d 30 2b
2023-03-28 17:59:56.380966 > 01 04 fa 00 05 00 00 00 00 00 00 00 00 00 00 00 00 00 00 00 00 00 00 07 d0 00 00 00 00 02 0b 00 3e 00 00 04 ad 00 00 00 00 00 00 00 00 00 00 04 ad 00 00 00 00 00 00 00 00 00 00 00 00 00 00 00 00 00 00 0c 1c 00 00 00 00 00 00 00 00 00 00 0c 1c 00 00 00 0e 00 05 0b 7e 28 b4 00 00 00 3a 00 00 0d 24 00 00 00 03 00 00 05 ff 00 00 00 2a 00 00 0a f5 00 00 00 2d 00 00 0b 59 00 00 00 67 00 00 19 2e 00 00 00 00 00 00 00 00 00 00 00 00 00 00 00 00 00 00 00 00 00 00 00 00 00 00 00 00 00 00 00 00 00 00 03 e8 00 00 00 61 00 00 00 00 00 3e 14 6e fe d4 00 0e 19 00 1e dc 31 10 86 86 00 05 00 2c 00 64 16 30 00 00 00 00 00 00 86 86 00 00 00 00 00 00 41 50 41 50 00 00 0c cb 0c c7 00 01 0e 10 0c c9 0c c8 0c cb 0c c8 0c ca 0c c8 0c c7 0c ca 0c c8 0c ca 0c c8 0c c8 00 00 16 d2
2023-03-28 17:59:56.582262 < 01 04 03 e8 00 7d b0 5b
2023-03-28 17:59:57.882587 > 01 04 fa 00 19 00 00 06 5c 00 00 00 00 04 50 00 00 00 00 00 00 00 00 00 00 00 00 00 00 00 47 00 00 17 19 00 00 00 45 00 00 11 39 00 00 0c 80 00 00 0b 54 00 00 00 33 00 01 00 00 0a 1b 00 01 00 00 0b 38 00 00 00 00 00 00 00 00 00 00 00 00 00 00 00 00 00 00 00 00 00 00 00 00 00 00 00 00 00 00 00 00 00 00 00 00 00 00 00 00 00 00 00 00 00 00 00 00 00 00 00 00 00 00 00 00 00 00 00 00 00 00 00 00 00 00 00 00 00 00 00 00 00 00 00 00 00 00 00 00 00 00 00 00 00 01 0c cb 0c c6 00 01 00 10 00 0c 00 02 00 9d 00 82 00 03 00 01 00 00 00 3e 00 3e 00 00 00 00 00 00 00 00 00 23 00 c0 00 00 00 00 00 00 00 00 00 00 00 00 00 00 00 00 00 00 00 00 00 00 00 00 00 00 00 00 00 00 00 00 00 00 00 00 00 00 00 00 00 00 00 00 00 00 00 00 00 00 00 00 00 00 00 00 00 00 00 00 00 00 49 be
2023-03-28 17:59:58.083933 < 01 04 04 65 00 7d 21 04
2023-03-28 18:00:00.694190 > 01 03 28 00 00 00 00 00 00 00 00 00 00 00 00 00 00 00 01 00 00 00 00 00 00 00 00 00 00 00 00 00 00 00 00 00 00 00 00 00 00 00 00 33 63 01 03 fa 00 01 08 00 00 00 00 64 00 64 27 10 00 00 17 70 0e 10 52 41 31 2e 30 20 5a 43 42 41 00 06 00 01 00 00 05 dc 00 1e 00 41 00 c8 00 64 00 00 4e 57 43 54 43 48 31 30 30 36 01 00 f2 75 00 01 00 5a 00 00 00 00 20 20 20 4e 65 77 20 45 6e 65 72 67 79 20 20 20 00 01 0d ad 00 00 07 e7 00 03 00 1c 00 11 00 3b 00 0d 00 02 07 30 0a 3e 12 8e 14 50 07 30 0a b1 12 5c 14 50 00 00 00 00 00 00 00 00 07 d1 0a 3e 12 8e 14 50 00 7f 00 34 00 7f 00 1b 03 ea 00 19 00 1b 00 1b 00 00 00 00 00 00 00 00 09 c4 00 00 52 41 41 41 32 31 32 30 30 36 00 00 01 31 00 00 00 00 13 b0 00 18 09 e2 09 b4 08 16 08 44 00 14 00 05 09 6f 08 fc 00 00 00 00 00 00 00 00 00 00 00 00 00 96 00 00 01 e4 00 ff 4e 20 00 ff 4e 20 00 ff 4e 20 00 ff 4e 20 00 00 00 00 00 00 00 00 00 00 00 00 00 00 ec be
2023-03-28 18:00:00.895834 < 01 03 00 b4 00 14 05 e3 01 03 00 00 00 7d 85 eb
2023-03-28 18:00:02.180495 > 01 03 fa 17 70 00 00 12 c0 00 32 01 d6 02 3f 12 c0 16 a8 42 a0 04 4c 02 bc 04 4c 02 58 00 00 00 00 00 00 00 00 00 00 00 00 00 00 00 00 00 00 00 00 00 00 00 00 00 00 00 00 00 00 00 00 00 00 00 00 00 00 00 00 00 00 00 00 00 00 00 00 00 00 00 00 00 05 00 00 00 64 00 00 00 01 00 00 00 64 00 64 00 00 00 01 00 01 00 01 00 00 00 00 00 00 00 00 00 00 00 00 00 00 00 00 00 00 00 01 00 00 00 00 00 00 00 00 00 00 00 00 00 00 00 00 00 00 00 64 00 05 00 00 00 00 00 00 00 00 00 00 00 00 00 00 00 00 00 00 00 00 00 01 00 00 00 00 00 00 00 00 00 00 00 00 00 00 00 14 00 64 00 01 00 00 00 00 00 00 00 00 00 00 00 00 00 00 00 1e 04 1e 00 01 00 00 00 00 00 00 00 00 00 00 00 00 00 0a 00 00 00 00 00 00 00 00 00 00 00 00 00 00 00 00 00 00 00 01 00 00 00 00 00 00 00 00 00 00 50 29
2023-03-28 18:00:02.381869 < 01 03 03 e8 00 7d 05 9b
2023-03-28 18:00:03.682824 > 01 03 fa 47 50 4a 30 32 31 39 35 32 32 32 35 37 38 32 41 00 00 00 00 00 00 00 00 00 00 00 00 00 00 00 00 00 00 00 00 00 00 00 00 00 00 00 00 00 00 00 00 00 00 00 00 00 00 00 00 00 00 00 00 00 00 00 00 00 00 00 00 00 00 00 00 00 00 00 00 00 00 00 00 00 00 00 00 00 00 00 00 00 00 00 00 00 00 00 00 00 00 00 00 00 00 00 00 00 00 00 00 00 00 00 00 00 00 00 00 00 00 00 00 00 00 00 00 00 00 00 00 00 00 00 00 00 00 00 00 00 00 00 00 00 00 00 00 00 00 00 00 00 00 00 00 00 00 00 00 00 00 00 00 00 00 00 00 00 00 00 00 00 00 00 00 00 00 00 00 00 00 00 00 00 00 00 00 00 00 00 00 00 00 00 00 00 00 00 00 00 00 00 00 00 00 00 00 00 00 00 00 00 00 00 00 00 00 00 00 00 00 00 00 00 00 00 00 00 00 00 00 00 00 00 00 00 00 00 00 00 00 00 00 00 00 00 00 00 00 00 00 00 00 5b 19
2023-03-28 18:00:03.884178 < 01 03 04 65 00 7d 94 c4
2023-03-28 18:00:05.185022 > 01 04 fa 00 05 00 00 02 58 0e 6b 00 00 00 00 00 96 05 9d 00 03 00 00 02 1b 00 01 42 a0 09 ab 07 c4 08 9b 00 fa 00 00 00 00 00 00 00 00 00 00 00 00 00 00 00 00 00 00 00 00 00 00 00 00 00 00 00 00 00 00 00 00 00 00 00 00 00 00 0b 0d 13 83 09 15 00 11 00 00 0b 3a 00 00 00 00 00 00 00 00 00 00 00 00 00 00 00 00 00 00 00 00 00 00 00 00 00 45 00 00 16 08 00 7b cd 00 00 00 00 1f 00 00 0c 24 00 00 00 14 00 00 06 3d 00 00 00 00 00 00 00 00 00 00 00 00 00 00 00 00 00 00 00 00 00 00 00 00 00 00 00 00 00 00 00 00 00 00 00 00 00 00 00 00 00 00 00 00 00 00 00 00 00 00 12 6d 00 ef 00 d6 00 dd 00 00 02 0d 10 b8 10 dd 00 00 00 00 00 00 00 00 00 00 00 00 00 00 00 00 00 00 00 00 00 00 00 00 00 00 00 19 00 00 06 5c 00 00 00 00 00 00 00 01 00 00 00 00 00 00 00 00 00 00 18 2c
2023-03-28 18:00:05.386311 < 01 04 00 00 00 7d 30 2b
2023-03-28 18:00:06.687395 > 01 04 fa 00 05 00 00 00 00 00 00 00 00 00 00 00 00 00 00 00 00 00 00 07 d0 00 00 00 00 02 0b 00 3e 00 00 00 00 00 00 00 00 00 00 00 00 00 00 00 00 00 00 00 66 00 00 00 00 00 00 00 00 00 00 00 66 00 00 0a 28 00 00 00 00 00 00 00 00 00 00 0a 28 00 00 00 0e 00 05 0b 82 28 b4 00 00 00 3a 00 00 0d 24 00 00 00 03 00 00 05 ff 00 00 00 2a 00 00 0a f5 00 00 00 2d 00 00 0b 59 00 00 00 67 00 00 19 2e 00 00 00 00 00 00 00 00 00 00 00 00 00 00 00 00 00 00 00 00 00 00 00 00 00 00 00 00 00 00 00 00 00 00 03 e8 00 00 00 63 00 00 00 00 00 3e 14 6e fe b6 00 0e 19 00 1e dc 31 10 86 86 00 05 00 2c 00 64 16 30 00 00 00 00 00 00 86 86 00 00 00 00 00 00 41 50 41 50 00 00 0c ca 0c c6 00 01 0e 10 0c c8 0c c8 0c ca 0c c8 0c c9 0c c7 0c c7 0c ca 0c c6 0c c9 0c c8 0c c7 00 00 5e e6
2023-03-28 18:00:06.888706 < 01 04 03 e8 00 7d b0 5b
2023-03-28 18:00:08.188804 > 01 04 fa 00 19 00 00 06 5c 00 00 00 00 04 50 00 00 00 00 00 00 00 00 00 00 00 00 00 00 00 47 00 00 17 19 00 00 00 45 00 00 11 39 00 00 0a 8c 00 00 09 c4 00 00 00 33 00 01 00 00 0a 1b 00 01 00 00 0b 38 00 00 00 00 00 00 00 00 00 00 00 00 00 00 00 00 00 00 00 00 00 00 00 00 00 00 00 00 00 00 00 00 00 00 00 00 00 00 00 00 00 00 00 00 00 00 00 00 00 00 00 00 00 00 00 00 00 00 00 00 00 00 00 00 00 00 00 00 00 00 00 00 00 00 00 00 00 00 00 00 00 00 00 00 00 01 0c ca 0c c5 00 01 00 10 00 07 00 02 00 9d 00 82 00 03 00 01 00 00 00 3e 00 3e 00 00 00 00 00 00 00 00 00 23 00 c0 00 00 00 00 00 00 00 00 00 00 00 00 00 00 00 00 00 00 00 00 00 00 00 00 00 00 00 00 00 00 00 00 00 00 00 00 00 00 00 00 00 00 00 00 00 00 00 00 00 00 00 00 00 00 00 00 00 00 00 00 00 00 58 fe
2023-03-28 18:00:08.390151 < 01 04 04 65 00 7d 21 04
2023-03-28 18:00:10.984625 > 01 03 28 00 00 00 00 00 00 00 00 00 00 00 00 00 00 00 01 00 00 00 00 00 00 00 00 00 00 00 00 00 00 00 00 00 00 00 00 00 00 00 00 33 63 01 03 fa 00 01 08 00 00 00 00 64 00 64 27 10 00 00 17 70 0e 10 52 41 31 2e 30 20 5a 43 42 41 00 06 00 01 00 00 05 dc 00 1e 00 41 00 c8 00 64 00 00 4e 57 43 54 43 48 31 30 30 36 01 00 f2 75 00 01 00 5a 00 00 00 00 20 20 20 4e 65 77 20 45 6e 65 72 67 79 20 20 20 00 01 0d ad 00 00 07 e7 00 03 00 1c 00 11 00 3b 00 17 00 02 07 30 0a 3e 12 8e 14 50 07 30 0a b1 12 5c 14 50 00 00 00 00 00 00 00 00 07 d1 0a 3e 12 8e 14 50 00 7f 00 34 00 7f 00 1b 03 ea 00 19 00 1b 00 1b 00 00 00 00 00 00 00 00 09 c4 00 00 52 41 41 41 32 31 32 30 30 36 00 00 01 31 00 00 00 00 13 b0 00 18 09 e2 09 b4 08 16 08 44 00 14 00 05 09 6f 08 fc 00 00 00 00 00 00 00 00 00 00 00 00 00 96 00 00 01 e4 00 ff 4e 20 00 ff 4e 20 00 ff 4e 20 00 ff 4e 20 00 00 00 00 00 00 00 00 00 00 00 00 00 00 64 0e
2023-03-28 18:00:11.186400 < 01 03 00 b4 00 14 05 e3 01 03 00 00 00 7d 85 eb
2023-03-28 18:00:12.487448 > 01 03 fa 17 70 00 00 12 c0 00 32 01 d6 02 3f 12 c0 16 a8 42 a0 04 4c 02 bc 04 4c 02 58 00 00 00 00 00 00 00 00 00 00 00 00 00 00 00 00 00 00 00 00 00 00 00 00 00 00 00 00 00 00 00 00 00 00 00 00 00 00 00 00 00 00 00 00 00 00 00 00 00 00 00 00 00 05 00 00 00 64 00 00 00 01 00 00 00 64 00 64 00 00 00 01 00 01 00 01 00 00 00 00 00 00 00 00 00 00 00 00 00 00 00 00 00 00 00 01 00 00 00 00 00 00 00 00 00 00 00 00 00 00 00 00 00 00 00 64 00 05 00 00 00 00 00 00 00 00 00 00 00 00 00 00 00 00 00 00 00 00 00 01 00 00 00 00 00 00 00 00 00 00 00 00 00 00 00 14 00 64 00 01 00 00 00 00 00 00 00 00 00 00 00 00 00 00 00 1e 04 1e 00 01 00 00 00 00 00 00 00 00 00 00 00 00 00 0a 00 00 00 00 00 00 00 00 00 00 00 00 00 00 00 00 00 00 00 01 00 00 00 00 00 00 00 00 00 00 50 29
2023-03-28 18:00:12.688794 < 01 03 03 e8 00 7d 05 9b
2023-03-28 18:00:13.990150 > 01 03 fa 47 50 4a 30 32 31 39 35 32 32 32 35 37 38 32 41 00 00 00 00 00 00 00 00 00 00 00 00 00 00 00 00 00 00 00 00 00 00 00 00 00 00 00 00 00 00 00 00 00 00 00 00 00 00 00 00 00 00 00 00 00 00 00 00 00 00 00 00 00 00 00 00 00 00 00 00 00 00 00 00 00 00 00 00 00 00 00 00 00 00 00 00 00 00 00 00 00 00 00 00 00 00 00 00 00 00 00 00 00 00 00 00 00 00 00 00 00 00 00 00 00 00 00 00 00 00 00 00 00 00 00 00 00 00 00 00 00 00 00 00 00 00 00 00 00 00 00 00 00 00 00 00 00 00 00 00 00 00 00 00 00 00 00 00 00 00 00 00 00 00 00 00 00 00 00 00 00 00 00 00 00 00 00 00 00 00 00 00 00 00 00 00 00 00 00 00 00 00 00 00 00 00 00 00 00 00 00 00 00 00 00 00 00 00 00 00 00 00 00 00 00 00 00 00 00 00 00 00 00 00 00 00 00 00 00 00 00 00 00 00 00 00 00 00 00 00 00 00 00 00 5b 19
2023-03-28 18:00:14.191461 < 01 03 04 65 00 7d 94 c4
2023-03-28 18:00:15.490447 > 01 04 fa 00 05 00 00 03 20 0e 07 00 01 00 00 01 7e 05 a0 00 03 00 00 01 fe 00 01 42 a0 09 b0 07 c2 08 9a 00 fa 00 00 00 00 00 00 00 00 00 00 00 00 00 00 00 00 00 00 00 00 00 00 00 00 00 00 00 00 00 00 00 00 00 00 00 00 00 00 0c 40 13 85 09 18 00 12 00 00 0c 3d 00 00 00 00 00 00 00 00 00 00 00 00 00 00 00 00 00 00 00 00 00 00 00 00 00 45 00 00 16 08 00 7b cd 14 00 00 00 1f 00 00 0c 24 00 00 00 14 00 00 06 3d 00 00 00 00 00 00 00 00 00 00 00 00 00 00 00 00 00 00 00 00 00 00 00 00 00 00 00 00 00 00 00 00 00 00 00 00 00 00 00 00 00 00 00 00 00 00 00 00 00 00 12 6d 00 ee 00 d6 00 dd 00 00 02 0d 10 b8 10 dd 00 00 00 00 00 00 00 00 00 00 00 00 00 00 00 00 00 00 00 00 00 00 00 00 00 00 00 19 00 00 06 5c 00 00 00 00 00 00 00 01 00 00 00 00 00 00 00 00 00 00 8a 83
2023-03-28 18:00:15.692724 < 01 04 00 00 00 7d 30 2b
2023-03-28 18:00:16.897174 > 01 10 00 2d 00 06 d0 02
2023-03-28 18:00:17.099363 < 01 10 00 2d 00 06 0c 00 17 00 03 00 1c 00 12 00 00 00 00 e8 1c
2023-03-28 18:00:17.802652 > 01 10 04 42 00 13 20 e0
2023-03-28 18:00:18.006217 < 01 10 04 42 00 13 26 00 15 00 64 00 01 00 00 00 00 00 00 00 00 00 00 00 00 00 00 00 1e 04 1e 00 01 00 00 00 00 00 00 00 00 00 00 00 00 46 85
2023-03-28 18:00:18.990596 > 01 04 fa 00 05 00 00 00 00 00 00 00 00 00 00 00 00 00 00 00 00 00 00 06 59 00 00 00 00 02 0b 00 3e 00 00 00 e6 00 00 00 00 00 00 00 00 00 00 00 e6 00 00 00 00 00 00 00 00 00 00 00 00 00 00 00 00 00 00 0a 8c 00 00 00 00 00 00 00 00 00 00 0a 8c 00 00 00 0e 00 05 0b 85 28 b4 00 00 00 3a 00 00 0d 24 00 00 00 03 00 00 05 ff 00 00 00 2a 00 00 0a f5 00 00 00 2d 00 00 0b 59 00 00 00 67 00 00 19 2e 00 00 00 00 00 00 00 00 00 00 00 00 00 00 00 00 00 00 00 00 00 00 00 00 00 00 00 00 00 00 00 00 00 00 03 e8 00 00 00 61 00 00 00 00 00 3e 14 6e ff 10 00 0e 19 00 1e dc 31 10 86 86 00 05 00 2c 00 64 16 30 00 00 00 00 00 00 86 86 00 00 00 00 00 00 41 50 41 50 00 00 0c ca 0c c7 00 01 0e 10 0c c9 0c c8 0c cb 0c c8 0c ca 0c c8 0c c7 0c cb 0c c7 0c ca 0c c9 0c c8 00 00 ca 85
2023-03-28 18:00:19.191993 < 01 04 03 e8 00 7d b0 5b
2023-03-28 18:00:20.476935 > 01 04 fa 00 19 00 00 06 5c 00 00 00 00 04 50 00 00 00 00 00 00 00 00 00 00 00 00 00 00 00 47 00 00 17 19 00 00 00 45 00 00 11 39 00 00 09 c4 00 00 09 c4 00 00 00 33 00 01 00 00 0a 1b 00 01 00 00 0b 38 00 00 00 00 00 00 00 00 00 00 00 00 00 00 00 00 00 00 00 00 00 00 00 00 00 00 00 00 00 00 00 00 00 00 00 00 00 00 00 00 00 00 00 00 00 00 00 00 00 00 00 00 00 00 00 00 00 00 00 00 00 00 00 00 00 00 00 00 00 00 00 00 00 00 00 00 00 00 00 00 00 00 00 00 00 01 0c ca 0c c6 00 01 00 10 00 04 00 02 00 9d 00 82 00 03 00 01 00 00 00 3e 00 3e 00 00 00 00 00 00 00 00 00 23 00 c0 00 00 00 00 00 00 00 00 00 00 00 00 00 00 00 00 00 00 00 00 00 00 00 00 00 00 00 00 00 00 00 00 00 00 00 00 00 00 00 00 00 00 00 00 00 00 00 00 00 00 00 00 00 00 00 00 00 00 00 00 00 00 80 31
2023-03-28 18:00:20.678152 < 01 04 04 65 00 7d 21 04
2023-03-28 18:00:23.288210 > 01 03 28 00 00 00 00 00 00 00 00 00 00 00 00 00 00 00 01 00 00 00 00 00 00 00 00 00 00 00 00 00 00 00 00 00 00 00 00 00 00 00 00 33 63 01 03 fa 00 01 08 00 00 00 00 64 00 64 27 10 00 00 17 70 0e 10 52 41 31 2e 30 20 5a 43 42 41 00 06 00 01 00 00 05 dc 00 1e 00 41 00 c8 00 64 00 00 4e 57 43 54 43 48 31 30 30 36 01 00 f2 75 00 01 00 5a 00 00 00 00 20 20 20 4e 65 77 20 45 6e 65 72 67 79 20 20 20 00 01 0d ad 00 00 07 e7 00 03 00 1c 00 12 00 00 00 03 00 02 07 30 0a 3e 12 8e 14 50 07 30 0a b1 12 5c 14 50 00 00 00 00 00 00 00 00 07 d1 0a 3e 12 8e 14 50 00 7f 00 34 00 7f 00 1b 03 ea 00 19 00 1b 00 1b 00 00 00 00 00 00 00 00 09 c4 00 00 52 41 41 41 32 31 32 30 30 36 00 00 01 31 00 00 00 00 13 b0 00 18 09 e2 09 b4 08 16 08 44 00 14 00 05 09 6f 08 fc 00 00 00 00 00 00 00 00 00 00 00 00 00 96 00 00 01 e4 00 ff 4e 20 00 ff 4e 20 00 ff 4e 20 00 ff 4e 20 00 00 00 00 00 00 00 00 00 00 00 00 00 00 bd 58
2023-03-28 18:00:23.490043 < 01 03 00 b4 00 14 05 e3 01 03 00 00 00 7d 85 eb
2023-03-28 18:00:24.789451 > 01 03 fa 17 70 00 00 12 c0 00 32 01 d6 02 3f 12 c0 16 a8 42 a0 04 4c 02 bc 04 4c 02 58 00 00 00 00 00 00 00 00 00 00 00 00 00 00 00 00 00 00 00 00 00 00 00 00 00 00 00 00 00 00 00 00 00 00 00 00 00 00 00 00 00 00 00 00 00 00 00 00 00 00 00 00 00 05 00 00 00 64 00 00 00 01 00 00 00 64 00 64 00 00 00 01 00 01 00 01 00 00 00 00 00 00 00 00 00 00 00 00 00 00 00 00 00 00 00 01 00 00 00 00 00 00 00 00 00 00 00 00 00 00 00 00 00 00 00 64 00 05 00 00 00 00 00 00 00 00 00 00 00 00 00 00 00 00 00 00 00 00 00 01 00 00 00 00 00 00 00 00 00 00 00 00 00 00 00 15 00 64 00 01 00 00 00 00 00 00 00 00 00 00 00 00 00 00 00 1e 04 1e 00 01 00 00 00 00 00 00 00 00 00 00 00 00 00 0a 00 00 00 00 00 00 00 00 00 00 00 00 00 00 00 00 00 00 00 01 00 00 00 00 00 00 00 00 00 00 5e f8
2023-03-28 18:00:24.990629 < 01 03 03 e8 00 7d 05 9b
2023-03-28 18:00:26.276037 > 01 03 fa 47 50 4a 30 32 31 39 35 32 32 32 35 37 38 32 41 00 00 00 00 00 00 00 00 00 00 00 00 00 00 00 00 00 00 00 00 00 00 00 00 00 00 00 00 00 00 00 00 00 00 00 00 00 00 00 00 00 00 00 00 00 00 00 00 00 00 00 00 00 00 00 00 00 00 00 00 00 00 00 00 00 00 00 00 00 00 00 00 00 00 00 00 00 00 00 00 00 00 00 00 00 00 00 00 00 00 00 00 00 00 00 00 00 00 00 00 00 00 00 00 00 00 00 00 00 00 00 00 00 00 00 00 00 00 00 00 00 00 00 00 00 00 00 00 00 00 00 00 00 00 00 00 00 00 00 00 00 00 00 00 00 00 00 00 00 00 00 00 00 00 00 00 00 00 00 00 00 00 00 00 00 00 00 00 00 00 00 00 00 00 00 00 00 00 00 00 00 00 00 00 00 00 00 00 00 00 00 00 00 00 00 00 00 00 00 00 00 00 00 00 00 00 00 00 00 00 00 00 00 00 00 00 00 00 00 00 00 00 00 00 00 00 00 00 00 00 00 00 00 00 5b 19
2023-03-28 18:00:26.477764 < 01 03 04 65 00 7d 94 c4
2023-03-28 18:00:27.778096 > 01 04 fa 00 05 00 00 03 84 0d 92 00 01 00 00 01 ea 05 8d 00 03 00 00 01 f8 00 01 42 a0 09 ae 07 c3 08 9a 00 fa 00 00 00 00 00 00 00 00 00 00 00 00 00 00 00 00 00 00 00 00 00 00 00 00 00 00 00 00 00 00 00 00 00 00 00 00 00 00 0c 2f 13 85 09 0a 00 12 00 00 0c 1f 00 00 00 00 00 00 00 00 00 00 00 00 00 00 00 00 00 00 00 00 00 00 00 00 00 45 00 00 16 08 00 7b cd 27 00 00 00 1f 00 00 0c 24 00 00 00 14 00 00 06 3d 00 00 00 00 00 00 00 00 00 00 00 00 00 00 00 00 00 00 00 00 00 00 00 00 00 00 00 00 00 00 00 00 00 00 00 00 00 00 00 00 00 00 00 00 00 00 00 00 00 00 12 6d 00 ee 00 d6 00 dd 00 00 02 0d 10 b8 10 dd 00 00 00 00 00 00 00 00 00 00 00 00 00 00 00 00 00 00 00 00 00 00 00 00 00 00 00 19 00 00 06 5c 00 00 00 00 00 00 00 01 00 00 00 00 00 00 00 00 00 00 aa 86
2023-03-28 18:00:27.979371 < 01 04 00 00 00 7d 30 2b
2023-03-28 18:00:29.281419 > 01 04 fa 00 05 00 00 00 00 00 00 00 00 00 00 00 00 00 00 00 00 00 00 07 6c 00 00 00 00 02 0b 00 3e 00 00 00 00 00 00 00 00 00 00 00 00 00 00 00 00 00 00 01 63 00 00 00 00 00 00 00 00 00 00 01 63 00 00 0a 28 00 00 00 00 00 00 00 00 00 00 0a 28 00 00 00 0e 00 05 0b 82 28 b4 00 00 00 3a 00 00 0d 24 00 00 00 03 00 00 05 ff 00 00 00 2a 00 00 0a f5 00 00 00 2d 00 00 0b 59 00 00 00 67 00 00 19 2e 00 00 00 00 00 00 00 00 00 00 00 00 00 00 00 00 00 00 00 00 00 00 00 00 00 00 00 00 00 00 00 00 00 00 03 e8 00 00 00 63 00 00 00 00 00 3e 14 6e fe ca 00 0e 19 00 1e dc 31 10 86 86 00 04 00 2c 00 64 16 30 00 00 00 00 00 00 86 86 00 00 00 00 00 00 41 50 41 50 00 00 0c ca 0c c6 00 01 0e 10 0c c9 0c c7 0c ca 0c c8 0c c9 0c c7 0c c7 0c ca 0c c7 0c ca 0c c7 0c c8 00 00 5d 28
2023-03-28 18:00:29.483630 < 01 04 03 e8 00 7d b0 5b
2023-03-28 18:00:30.782245 > 01 04 fa 00 19 00 00 06 5c 00 00 00 00 04 50 00 00 00 00 00 00 00 00 00 00 00 00 00 00 00 47 00 00 17 19 00 00 00 45 00 00 11 39 00 00 0a 28 00 00 0a 28 00 00 00 33 00 01 00 00 0a 1b 00 01 00 00 0b 38 00 00 00 00 00 00 00 00 00 00 00 00 00 00 00 00 00 00 00 00 00 00 00 00 00 00 00 00 00 00 00 00 00 00 00 00 00 00 00 00 00 00 00 00 00 00 00 00 00 00 00 00 00 00 00 00 00 00 00 00 00 00 00 00 00 00 00 00 00 00 00 00 00 00 00 00 00 00 00 00 00 00 00 00 00 01 0c cb 0c c7 00 01 00 10 00 0e 00 02 00 9d 00 82 00 03 00 01 00 00 00 3e 00 3e 00 00 00 00 00 00 00 00 00 23 00 c0 00 00 00 00 00 00 00 00 00 00 00 00 00 00 00 00 00 00 00 00 00 00 00 00 00 00 00 00 00 00 00 00 00 00 00 00 00 00 00 00 00 00 00 00 00 00 00 00 00 00 00 00 00 00 00 00 00 00 00 00 00 00 b5 8f
2023-03-28 18:00:30.983632 < 01 04 04 65 00 7d 21 04
2023-03-28 18:00:33.578395 > 01 03 28 00 00 00 00 00 00 00 00 00 00 00 00 00 00 00 01 00 00 00 00 00 00 00 00 00 00 00 00 00 00 00 00 00 00 00 00 00 00 00 00 33 63 01 03 fa 00 01 08 00 00 00 00 64 00 64 27 10 00 00 17 70 0e 10 52 41 31 2e 30 20 5a 43 42 41 00 06 00 01 00 00 05 dc 00 1e 00 41 00 c8 00 64 00 00 4e 57 43 54 43 48 31 30 30 36 01 00 f2 75 00 01 00 5a 00 00 00 00 20 20 20 4e 65 77 20 45 6e 65 72 67 79 20 20 20 00 01 0d ad 00 00 07 e7 00 03 00 1c 00 12 00 00 00 0e 00 02 07 30 0a 3e 12 8e 14 50 07 30 0a b1 12 5c 14 50 00 00 00 00 00 00 00 00 07 d1 0a 3e 12 8e 14 50 00 7f 00 34 00 7f 00 1b 03 ea 00 19 00 1b 00 1b 00 00 00 00 00 00 00 00 09 c4 00 00 52 41 41 41 32 31 32 30 30 36 00 00 01 31 00 00 00 00 13 b0 00 18 09 e2 09 b4 08 16 08 44 00 14 00 05 09 6f 08 fc 00 00 00 00 00 00 00 00 00 00 00 00 00 96 00 00 01 e4 00 ff 4e 20 00 ff 4e 20 00 ff 4e 20 00 ff 4e 20 00 00 00 00 00 00 00 00 00 00 00 00 00 00 f9 00
2023-03-28 18:00:33.781108 < 01 03 00 b4 00 14 05 e3 01 03 00 00 00 7d 85 eb
2023-03-28 18:00:35.080678 > 01 03 fa 17 70 00 00 12 c0 00 32 01 d6 02 3f 12 c0 16 a8 42 a0 04 4c 02 bc 04 4c 02 58 00 00 00 00 00 00 00 00 00 00 00 00 00 00 00 00 00 00 00 00 00 00 00 00 00 00 00 00 00 00 00 00 00 00 00 00 00 00 00 00 00 00 00 00 00 00 00 00 00 00 00 00 00 05 00 00 00 64 00 00 00 01 00 00 00 64 00 64 00 00 00 01 00 01 00 01 00 00 00 00 00 00 00 00 00 00 00 00 00 00 00 00 00 00 00 01 00 00 00 00 00 00 00 00 00 00 00 00 00 00 00 00 00 00 00 64 00 05 00 00 00 00 00 00 00 00 00 00 00 00 00 00 00 00 00 00 00 00 00 01 00 00 00 00 00 00 00 00 00 00 00 00 00 00 00 15 00 64 00 01 00 00 00 00 00 00 00 00 00 00 00 00 00 00 00 1e 04 1e 00 01 00 00 00 00 00 00 00 00 00 00 00 00 00 0a 00 00 00 00 00 00 00 00 00 00 00 00 00 00 00 00 00 00 00 01 00 00 00 00 00 00 00 00 00 00 5e f8
2023-03-28 18:00:35.282871 < 01 03 03 e8 00 7d 05 9b
2023-03-28 18:00:36.582195 > 01 03 fa 47 50 4a 30 32 31 39 35 32 32 32 35 37 38 32 41 00 00 00 00 00 00 00 00 00 00 00 00 00 00 00 00 00 00 00 00 00 00 00 00 00 00 00 00 00 00 00 00 00 00 00 00 00 00 00 00 00 00 00 00 00 00 00 00 00 00 00 00 00 00 00 00 00 00 00 00 00 00 00 00 00 00 00 00 00 00 00 00 00 00 00 00 00 00 00 00 00 00 00 00 00 00 00 00 00 00 00 00 00 00 00 00 00 00 00 00 00 00 00 00 00 00 00 00 00 00 00 00 00 00 00 00 00 00 00 00 00 00 00 00 00 00 00 00 00 00 00 00 00 00 00 00 00 00 00 00 00 00 00 00 00 00 00 00 00 00 00 00 00 00 00 00 00 00 00 00 00 00 00 00 00 00 00 00 00 00 00 00 00 00 00 00 00 00 00 00 00 00 00 00 00 00 00 00 00 00 00 00 00 00 00 00 00 00 00 00 00 00 00 00 00 00 00 00 00 00 00 00 00 00 00 00 00 00 00 00 00 00 00 00 00 00 00 00 00 00 00 00 00 00 5b 19
2023-03-28 18:00:36.783621 < 01 03 04 65 00 7d 94 c4
